HEADER
"PSFversion" "1.00"
"simulator" "spectre"
"version" "23.1.0.063"
"date" "3:06:53 PM, Thur Feb 6, 2025"
"design" ""
"analysis type" "ac"
"analysis name" "outac2"
"analysis description" "AC Analysis `outac2': freq = (100 mHz -> 100 GHz)"
"xVecSorted" "ascending"
"tolerance.relative" 0.00100000
"start" 0.100000
"stop" 1.00000e+11
"operating point producer" "outac2"
TYPE
"sweep" FLOAT DOUBLE PROP(
"key" "sweep"
)
"V" COMPLEX DOUBLE PROP(
"units" "V"
"key" "node"
"tolerance" 1.00000e-06
)
"I" COMPLEX DOUBLE PROP(
"units" "A"
"key" "branch"
"tolerance" 1.00000e-12
)
"MMF" COMPLEX DOUBLE PROP(
"units" "A*turn"
"key" "node"
"tolerance" 1.00000e-12
)
"Wb" COMPLEX DOUBLE PROP(
"units" "Wb"
"key" "node"
"tolerance" 1.00000e-09
)
"Temp" COMPLEX DOUBLE PROP(
"units" "C"
"key" "node"
"tolerance" 0.000100000
)
"Pwr" COMPLEX DOUBLE PROP(
"units" "W"
"key" "node"
"tolerance" 1.00000e-09
)
"U" COMPLEX DOUBLE PROP(
"units" ""
"key" "node"
"tolerance" 1.00000e-06
)
"V/Sec" COMPLEX DOUBLE PROP(
"units" "V/s"
"key" "node"
"tolerance" 0.000100000
)
"I/Sec" COMPLEX DOUBLE PROP(
"units" "A/s"
"key" "node"
"tolerance" 1.00000e-06
)
"1/Sec" COMPLEX DOUBLE PROP(
"units" "1/s"
"key" "node"
"tolerance" 0.000100000
)
"HOD" COMPLEX DOUBLE PROP(
"units" ""
"key" "node"
"tolerance" 0.0100000
)
"Q" COMPLEX DOUBLE PROP(
"units" "Coul"
"key" "node"
"tolerance" 1.00000e-15
)
SWEEP
"freq" "sweep" PROP(
"sweep_direction" 0
"units" "Hz"
"plot" 0
"grid" 3
)
TRACE
"Xopamp:1" "I"
"Xopamp:2" "I"
"Xopamp:3" "I"
"Xopamp:4" "I"
"Xopamp:5" "I"
"Xopamp:6" "I"
"dd" "V"
"net7" "V"
"inn" "V"
"out" "V"
"inp" "V"
"cm" "V"
"Xopamp.net1" "V"
"Xopamp.net3" "V"
"Xopamp.net2" "V"
"Xopamp.net8" "V"
"vcm:p" "I"
"vdd:p" "I"
"vin:p" "I"
"vip:p" "I"
VALUE
"freq" 1.000000000000000e-01
"Xopamp:1" (2.565143933636236e-07 3.731031454431560e-14)
"Xopamp:2" (-2.565143933269801e-07 -3.873014710859533e-14)
"Xopamp:3" (-2.652833915549435e-24 1.428402770542382e-15)
"Xopamp:4" (-3.012984857416368e-24 1.433017084337095e-15)
"Xopamp:5" (1.659430681376438e-35 -2.816215047905921e-27)
"Xopamp:6" (6.596658570577340e-18 -1.441587290626868e-15)
"dd" (0.000000000000000e+00 0.000000000000000e+00)
"net7" (1.475486674944306e-19 5.184845826805355e-11)
"inn" (1.000006819943995e+00 5.232039921364596e-12)
"out" (6.819943994680564e-06 5.232039921364596e-12)
"inp" (1.000000000000000e+00 0.000000000000000e+00)
"cm" (0.000000000000000e+00 0.000000000000000e+00)
"Xopamp.net1" (-3.256573310626003e-03 -3.323625109660368e-10)
"Xopamp.net3" (9.966337002103497e-01 -2.217697090590161e-10)
"Xopamp.net2" (-2.303406507967825e-08 -1.207680405529672e-10)
"Xopamp.net8" (-2.303406508101874e-08 -1.206951972393784e-10)
"vcm:p" (2.652833915549435e-24 -1.428402770542382e-15)
"vdd:p" (-2.565143933636236e-07 -3.731031454431560e-14)
"vin:p" (3.012984857416368e-24 -1.433017084337095e-15)
"vip:p" (2.652833915549435e-24 -1.428402770542382e-15)
"freq" 1.258925411794167e-01
"Xopamp:1" (2.565143933942592e-07 4.697090307502257e-14)
"Xopamp:2" (-2.565143933269383e-07 -4.875836639752947e-14)
"Xopamp:3" (-4.204458412951550e-24 1.798252546115423e-15)
"Xopamp:4" (-4.775259189517967e-24 1.804061623009988e-15)
"Xopamp:5" (-1.428078699455227e-35 6.159462628335506e-27)
"Xopamp:6" (3.806256037736587e-20 -1.814850846572437e-15)
"dd" (0.000000000000000e+00 0.000000000000000e+00)
"net7" (2.338488786684935e-19 6.527334167599138e-11)
"inn" (1.000006819943995e+00 6.586748013549716e-12)
"out" (6.819943995166232e-06 6.586748013549716e-12)
"inp" (1.000000000000000e+00 0.000000000000000e+00)
"cm" (0.000000000000000e+00 0.000000000000000e+00)
"Xopamp.net1" (-3.256573310931630e-03 -4.184196109829411e-10)
"Xopamp.net3" (9.966337002101868e-01 -2.791915223001689e-10)
"Xopamp.net2" (-2.303413845368838e-08 -1.520379548838753e-10)
"Xopamp.net8" (-2.303413845581291e-08 -1.519462505843293e-10)
"vcm:p" (4.204458412951551e-24 -1.798252546115424e-15)
"vdd:p" (-2.565143933942592e-07 -4.697090307502257e-14)
"vin:p" (4.775259189517967e-24 -1.804061623009989e-15)
"vip:p" (4.204458412951551e-24 -1.798252546115424e-15)
"freq" 1.584893192461114e-01
"Xopamp:1" (2.565143934142776e-07 5.913286355743701e-14)
"Xopamp:2" (-2.565143933269048e-07 -6.138314649541244e-14)
"Xopamp:3" (-6.663617518193837e-24 2.263865827130611e-15)
"Xopamp:4" (-7.568275781703828e-24 2.271179021652785e-15)
"Xopamp:5" (2.817659958921023e-35 -7.556555602420768e-28)
"Xopamp:6" (-5.870792934530092e-19 -2.284761910733730e-15)
"dd" (0.000000000000000e+00 0.000000000000000e+00)
"net7" (3.706254958663836e-19 8.217426854861807e-11)
"inn" (1.000006819943996e+00 8.292224455005911e-12)
"out" (6.819943995717868e-06 8.292224455005911e-12)
"inp" (1.000000000000000e+00 0.000000000000000e+00)
"cm" (0.000000000000000e+00 0.000000000000000e+00)
"Xopamp.net1" (-3.256573311177857e-03 -5.267590810586188e-10)
"Xopamp.net3" (9.966337002100559e-01 -3.514813021816304e-10)
"Xopamp.net2" (-2.303414542949978e-08 -1.914044456470141e-10)
"Xopamp.net8" (-2.303414543286695e-08 -1.912889967738178e-10)
"vcm:p" (6.663617518193837e-24 -2.263865827130612e-15)
"vdd:p" (-2.565143934142777e-07 -5.913286355743701e-14)
"vin:p" (7.568275781703828e-24 -2.271179021652785e-15)
"vip:p" (6.663617518193837e-24 -2.263865827130612e-15)
"freq" 1.995262314968880e-01
"Xopamp:1" (2.565143933575891e-07 7.444386455494482e-14)
"Xopamp:2" (-2.565143933269960e-07 -7.727680297898607e-14)
"Xopamp:3" (-1.056112204020703e-23 2.850038218659071e-15)
"Xopamp:4" (-1.199490876507390e-23 2.859244985082675e-15)
"Xopamp:5" (-3.981105492647382e-35 6.471960893615722e-27)
"Xopamp:6" (3.476087768965668e-18 -2.876344779688386e-15)
"dd" (0.000000000000000e+00 0.000000000000000e+00)
"net7" (5.874018253514341e-19 1.034512748714902e-10)
"inn" (1.000006819943994e+00 1.043929208589834e-11)
"out" (6.819943994236023e-06 1.043929208589834e-11)
"inp" (1.000000000000000e+00 0.000000000000000e+00)
"cm" (0.000000000000000e+00 0.000000000000000e+00)
"Xopamp.net1" (-3.256573310509753e-03 -6.631503930399538e-10)
"Xopamp.net3" (9.966337002104114e-01 -4.424887430868798e-10)
"Xopamp.net2" (-2.303409999190913e-08 -2.409639199999601e-10)
"Xopamp.net8" (-2.303409999724573e-08 -2.408185784807269e-10)
"vcm:p" (1.056112204020703e-23 -2.850038218659072e-15)
"vdd:p" (-2.565143933575891e-07 -7.444386455494484e-14)
"vin:p" (1.199490876507390e-23 -2.859244985082674e-15)
"vip:p" (1.056112204020703e-23 -2.850038218659072e-15)
"freq" 2.511886431509581e-01
"Xopamp:1" (2.565143933440537e-07 9.371927286434411e-14)
"Xopamp:2" (-2.565143933270144e-07 -9.728573101246350e-14)
"Xopamp:3" (-1.673825042722303e-23 3.587985538052370e-15)
"Xopamp:4" (-1.901064924596351e-23 3.599576170263156e-15)
"Xopamp:5" (-3.736308794088641e-35 -1.070612884312529e-26)
"Xopamp:6" (6.536338585620888e-18 -3.621103560161362e-15)
"dd" (0.000000000000000e+00 0.000000000000000e+00)
"net7" (9.309691542388985e-19 1.302374388182317e-10)
"inn" (1.000006819943994e+00 1.314229008770860e-11)
"out" (6.819943994146210e-06 1.314229008770860e-11)
"inp" (1.000000000000000e+00 0.000000000000000e+00)
"cm" (0.000000000000000e+00 0.000000000000000e+00)
"Xopamp.net1" (-3.256573310376795e-03 -8.348568816403827e-10)
"Xopamp.net3" (9.966337002104823e-01 -5.570603231054181e-10)
"Xopamp.net2" (-2.303406575033484e-08 -3.033556024809282e-10)
"Xopamp.net8" (-2.303406575879278e-08 -3.031726283498945e-10)
"vcm:p" (1.673825042722303e-23 -3.587985538052370e-15)
"vdd:p" (-2.565143933440537e-07 -9.371927286434409e-14)
"vin:p" (1.901064924596351e-23 -3.599576170263157e-15)
"vip:p" (1.673825042722303e-23 -3.587985538052370e-15)
"freq" 3.162277660168380e-01
"Xopamp:1" (2.565143934337509e-07 1.179855741031092e-13)
"Xopamp:2" (-2.565143933268701e-07 -1.224754789764961e-13)
"Xopamp:3" (-2.652833915168055e-23 4.517006171024389e-15)
"Xopamp:4" (-3.012984857428499e-23 4.531597912457726e-15)
"Xopamp:5" (5.199211513686978e-35 -6.553275055891511e-27)
"Xopamp:6" (3.012035028317275e-19 -4.558699209932329e-15)
"dd" (0.000000000000000e+00 0.000000000000000e+00)
"net7" (1.475486674941678e-18 1.639592212951676e-10)
"inn" (1.000006819943996e+00 1.654516296760351e-11)
"out" (6.819943996414519e-06 1.654516296760351e-11)
"inp" (1.000000000000000e+00 0.000000000000000e+00)
"cm" (0.000000000000000e+00 0.000000000000000e+00)
"Xopamp.net1" (-3.256573311436349e-03 -1.051022543503604e-09)
"Xopamp.net3" (9.966337002099185e-01 -7.012973966549576e-10)
"Xopamp.net2" (-2.303413550934045e-08 -3.819020758712651e-10)
"Xopamp.net8" (-2.303413552274536e-08 -3.816717250855811e-10)
"vcm:p" (2.652833915168055e-23 -4.517006171024388e-15)
"vdd:p" (-2.565143934337509e-07 -1.179855741031092e-13)
"vin:p" (3.012984857428499e-23 -4.531597912457726e-15)
"vip:p" (2.652833915168055e-23 -4.517006171024388e-15)
"freq" 3.981071705534974e-01
"Xopamp:1" (2.565143933416292e-07 1.485350374242479e-13)
"Xopamp:2" (-2.565143933270276e-07 -1.541874928052653e-13)
"Xopamp:3" (-4.204458412652615e-23 5.686573853906240e-15)
"Xopamp:4" (-4.775259189516166e-23 5.704943767992613e-15)
"Xopamp:5" (-1.657917232399754e-34 9.667256831318213e-28)
"Xopamp:6" (1.701149968543689e-18 -5.739062240720831e-15)
"dd" (0.000000000000000e+00 0.000000000000000e+00)
"net7" (2.338488786685707e-18 2.064124301865963e-10)
"inn" (1.000006819943994e+00 2.082912609588578e-11)
"out" (6.819943994105213e-06 2.082912609588578e-11)
"inp" (1.000000000000000e+00 0.000000000000000e+00)
"cm" (0.000000000000000e+00 0.000000000000000e+00)
"Xopamp.net1" (-3.256573310284596e-03 -1.323158988392811e-09)
"Xopamp.net3" (9.966337002105313e-01 -8.828811138777731e-10)
"Xopamp.net2" (-2.303411984890012e-08 -4.807862276906687e-10)
"Xopamp.net8" (-2.303411987014548e-08 -4.804962332337055e-10)
"vcm:p" (4.204458412652615e-23 -5.686573853906238e-15)
"vdd:p" (-2.565143933416293e-07 -1.485350374242479e-13)
"vin:p" (4.775259189516166e-23 -5.704943767992614e-15)
"vip:p" (4.204458412652615e-23 -5.686573853906238e-15)
"freq" 5.011872336272725e-01
"Xopamp:1" (2.565143934208493e-07 1.869945333967694e-13)
"Xopamp:2" (-2.565143933268836e-07 -1.941105528732705e-13)
"Xopamp:3" (-6.663617518074972e-23 7.158972330758173e-15)
"Xopamp:4" (-7.568275781701151e-23 7.182098682421792e-15)
"Xopamp:5" (-1.285990819799583e-34 1.901891434647444e-27)
"Xopamp:6" (5.886871406307030e-18 -7.225051536732365e-15)
"dd" (0.000000000000000e+00 0.000000000000000e+00)
"net7" (3.706254958661566e-18 2.598578536719493e-10)
"inn" (1.000006819943996e+00 2.622231615050514e-11)
"out" (6.819943996091176e-06 2.622231615050514e-11)
"inp" (1.000000000000000e+00 0.000000000000000e+00)
"cm" (0.000000000000000e+00 0.000000000000000e+00)
"Xopamp.net1" (-3.256573311343500e-03 -1.665758474319304e-09)
"Xopamp.net3" (9.966337002099680e-01 -1.111481469852028e-09)
"Xopamp.net2" (-2.303407303359661e-08 -6.052740023868067e-10)
"Xopamp.net8" (-2.303407306726825e-08 -6.049089209980473e-10)
"vcm:p" (6.663617518074972e-23 -7.158972330758170e-15)
"vdd:p" (-2.565143934208492e-07 -1.869945333967694e-13)
"vin:p" (7.568275781701151e-23 -7.182098682421793e-15)
"vip:p" (6.663617518074972e-23 -7.158972330758170e-15)
"freq" 6.309573444801935e-01
"Xopamp:1" (2.565143933376115e-07 2.354121697950791e-13)
"Xopamp:2" (-2.565143933270307e-07 -2.443707077097115e-13)
"Xopamp:3" (-1.056112203998088e-22 9.012612189482574e-15)
"Xopamp:4" (-1.199490876507055e-22 9.041726541264285e-15)
"Xopamp:5" (-1.573281639140550e-34 -1.244676274303715e-26)
"Xopamp:6" (4.650550480661261e-18 -9.095800816087320e-15)
"dd" (0.000000000000000e+00 0.000000000000000e+00)
"net7" (5.874018253515875e-18 3.271416554420936e-10)
"inn" (1.000006819943994e+00 3.301194014969836e-11)
"out" (6.819943993873093e-06 3.301194014969836e-11)
"inp" (1.000000000000000e+00 0.000000000000000e+00)
"cm" (0.000000000000000e+00 0.000000000000000e+00)
"Xopamp.net1" (-3.256573310271081e-03 -2.097065673244921e-09)
"Xopamp.net3" (9.966337002105384e-01 -1.399272267140501e-09)
"Xopamp.net2" (-2.303408683873956e-08 -7.619948208576802e-10)
"Xopamp.net8" (-2.303408689210551e-08 -7.615352106192184e-10)
"vcm:p" (1.056112203998088e-22 -9.012612189482576e-15)
"vdd:p" (-2.565143933376115e-07 -2.354121697950792e-13)
"vin:p" (1.199490876507055e-22 -9.041726541264285e-15)
"vip:p" (1.056112203998088e-22 -9.012612189482576e-15)
"freq" 7.943282347242818e-01
"Xopamp:1" (2.565143933466770e-07 2.963663627672814e-13)
"Xopamp:2" (-2.565143933270220e-07 -3.076444938338674e-13)
"Xopamp:3" (-1.673825042551678e-22 1.134620651198936e-14)
"Xopamp:4" (-1.901064924591006e-22 1.138285930929570e-14)
"Xopamp:5" (5.959756358668998e-34 -1.256207369327018e-26)
"Xopamp:6" (1.367505592308070e-18 -1.145093475510451e-14)
"dd" (0.000000000000000e+00 0.000000000000000e+00)
"net7" (9.309691542391365e-18 4.118469432924470e-10)
"inn" (1.000006819943994e+00 4.155957034314253e-11)
"out" (6.819943993983527e-06 4.155957034314253e-11)
"inp" (1.000000000000000e+00 0.000000000000000e+00)
"cm" (0.000000000000000e+00 0.000000000000000e+00)
"Xopamp.net1" (-3.256573310344489e-03 -2.640049266241549e-09)
"Xopamp.net3" (9.966337002104994e-01 -1.761579415122640e-09)
"Xopamp.net2" (-2.303412356415957e-08 -9.592946432661804e-10)
"Xopamp.net8" (-2.303412364873889e-08 -9.587160282543427e-10)
"vcm:p" (1.673825042551678e-22 -1.134620651198936e-14)
"vdd:p" (-2.565143933466769e-07 -2.963663627672813e-13)
"vin:p" (1.901064924591006e-22 -1.138285930929569e-14)
"vip:p" (1.673825042551678e-22 -1.134620651198936e-14)
"freq" 1.000000000000000e+00
"Xopamp:1" (2.565143934044648e-07 3.731031452336997e-13)
"Xopamp:2" (-2.565143933269177e-07 -3.873014710858587e-13)
"Xopamp:3" (-2.652833915209722e-22 1.428402770545372e-14)
"Xopamp:4" (-3.012984857427800e-22 1.433017084340763e-14)
"Xopamp:5" (4.480044069853902e-34 -1.920457880533417e-26)
"Xopamp:6" (4.956822675212383e-18 -1.441587269626896e-14)
"dd" (0.000000000000000e+00 0.000000000000000e+00)
"net7" (1.475486674942213e-17 5.184845826803981e-10)
"inn" (1.000006819943996e+00 5.232039923300115e-11)
"out" (6.819943995668184e-06 5.232039923300115e-11)
"inp" (1.000000000000000e+00 0.000000000000000e+00)
"cm" (0.000000000000000e+00 0.000000000000000e+00)
"Xopamp.net1" (-3.256573311123751e-03 -3.323625109661320e-09)
"Xopamp.net3" (9.966337002100850e-01 -2.217697090578487e-09)
"Xopamp.net2" (-2.303408341101575e-08 -1.207680403180939e-09)
"Xopamp.net8" (-2.303408354506495e-08 -1.206951970042981e-09)
"vcm:p" (2.652833915209722e-22 -1.428402770545373e-14)
"vdd:p" (-2.565143934044648e-07 -3.731031452336997e-13)
"vin:p" (3.012984857427800e-22 -1.433017084340763e-14)
"vip:p" (2.652833915209722e-22 -1.428402770545373e-14)
"freq" 1.258925411794168e+00
"Xopamp:1" (2.565143933782093e-07 4.697090305555151e-13)
"Xopamp:2" (-2.565143933269616e-07 -4.875836639753240e-13)
"Xopamp:3" (-4.204458412566097e-22 1.798252546114476e-14)
"Xopamp:4" (-4.775259189518730e-22 1.804061623009011e-14)
"Xopamp:5" (-1.159319548554973e-33 2.989979879789247e-26)
"Xopamp:6" (7.740724077740168e-18 -1.814850827138740e-14)
"dd" (0.000000000000000e+00 0.000000000000000e+00)
"net7" (2.338488786684649e-17 6.527334167599503e-10)
"inn" (1.000006819943995e+00 6.586748013834324e-11)
"out" (6.819943995060286e-06 6.586748013834324e-11)
"inp" (1.000000000000000e+00 0.000000000000000e+00)
"cm" (0.000000000000000e+00 0.000000000000000e+00)
"Xopamp.net1" (-3.256573310825826e-03 -4.184196109832574e-09)
"Xopamp.net3" (9.966337002102433e-01 -2.791915222998636e-09)
"Xopamp.net2" (-2.303405226181423e-08 -1.520379546661707e-09)
"Xopamp.net8" (-2.303405247426789e-08 -1.519462503677784e-09)
"vcm:p" (4.204458412566097e-22 -1.798252546114476e-14)
"vdd:p" (-2.565143933782093e-07 -4.697090305555150e-13)
"vin:p" (4.775259189518730e-22 -1.804061623009011e-14)
"vip:p" (4.204458412566097e-22 -1.798252546114476e-14)
"freq" 1.584893192461114e+00
"Xopamp:1" (2.565143934455052e-07 5.913286350049193e-13)
"Xopamp:2" (-2.565143933268611e-07 -6.138314649540049e-13)
"Xopamp:3" (-6.663617516730796e-22 2.263865827134547e-14)
"Xopamp:4" (-7.568275781717675e-22 2.271179021657737e-14)
"Xopamp:5" (-6.035458194861953e-34 3.485879743627814e-26)
"Xopamp:6" (1.485620018405752e-18 -2.284761853841826e-14)
"dd" (0.000000000000000e+00 0.000000000000000e+00)
"net7" (3.706254958656770e-17 8.217426854859957e-10)
"inn" (1.000006819943997e+00 8.292224458818390e-11)
"out" (6.819943997011733e-06 8.292224458818390e-11)
"inp" (1.000000000000000e+00 0.000000000000000e+00)
"cm" (0.000000000000000e+00 0.000000000000000e+00)
"Xopamp.net1" (-3.256573311600795e-03 -5.267590810576073e-09)
"Xopamp.net3" (9.966337002098313e-01 -3.514813021782497e-09)
"Xopamp.net2" (-2.303412223387915e-08 -1.914044450104644e-09)
"Xopamp.net8" (-2.303412257059551e-08 -1.912889961376319e-09)
"vcm:p" (6.663617516730796e-22 -2.263865827134546e-14)
"vdd:p" (-2.565143934455052e-07 -5.913286350049193e-13)
"vin:p" (7.568275781717675e-22 -2.271179021657737e-14)
"vip:p" (6.663617516730796e-22 -2.263865827134546e-14)
"freq" 1.995262314968881e+00
"Xopamp:1" (2.565143933784757e-07 7.444386456875598e-13)
"Xopamp:2" (-2.565143933269933e-07 -7.727680297897828e-13)
"Xopamp:3" (-1.056112204064608e-21 2.850038218661429e-14)
"Xopamp:4" (-1.199490876505290e-21 2.859244985085323e-14)
"Xopamp:5" (-5.356492657827000e-34 2.922659559260934e-26)
"Xopamp:6" (-3.214482164280344e-18 -2.876344793561404e-14)
"dd" (0.000000000000000e+00 0.000000000000000e+00)
"net7" (5.874018253515185e-17 1.034512748714801e-09)
"inn" (1.000006819943994e+00 1.043929208500188e-10)
"out" (6.819943994477229e-06 1.043929208500188e-10)
"inp" (1.000000000000000e+00 0.000000000000000e+00)
"cm" (0.000000000000000e+00 0.000000000000000e+00)
"Xopamp.net1" (-3.256573310690222e-03 -6.631503930379082e-09)
"Xopamp.net3" (9.966337002103155e-01 -4.424887430872016e-09)
"Xopamp.net2" (-2.303417479813583e-08 -2.409639201555927e-09)
"Xopamp.net8" (-2.303417533179530e-08 -2.408185786347542e-09)
"vcm:p" (1.056112204064608e-21 -2.850038218661428e-14)
"vdd:p" (-2.565143933784757e-07 -7.444386456875599e-13)
"vin:p" (1.199490876505290e-21 -2.859244985085323e-14)
"vip:p" (1.056112204064608e-21 -2.850038218661428e-14)
"freq" 2.511886431509582e+00
"Xopamp:1" (2.565143934311644e-07 9.371927290461192e-13)
"Xopamp:2" (-2.565143933269062e-07 -9.728573101240970e-13)
"Xopamp:3" (-1.673825042877357e-21 3.587985538068249e-14)
"Xopamp:4" (-1.901064924595240e-21 3.599576170282576e-14)
"Xopamp:5" (-3.949661018762886e-34 -6.827011646028177e-26)
"Xopamp:6" (1.986001250907239e-18 -3.621103600625925e-14)
"dd" (0.000000000000000e+00 0.000000000000000e+00)
"net7" (9.309691542380692e-17 1.302374388181586e-09)
"inn" (1.000006819943996e+00 1.314229008908362e-10)
"out" (6.819943996362349e-06 1.314229008908362e-10)
"inp" (1.000000000000000e+00 0.000000000000000e+00)
"cm" (0.000000000000000e+00 0.000000000000000e+00)
"Xopamp.net1" (-3.256573311425338e-03 -8.348568816337905e-09)
"Xopamp.net3" (9.966337002099247e-01 -5.570603231042958e-09)
"Xopamp.net2" (-2.303411661487293e-08 -3.033556029338382e-09)
"Xopamp.net8" (-2.303411746066619e-08 -3.031726288013628e-09)
"vcm:p" (1.673825042877357e-21 -3.587985538068250e-14)
"vdd:p" (-2.565143934311644e-07 -9.371927290461192e-13)
"vin:p" (1.901064924595240e-21 -3.599576170282576e-14)
"vip:p" (1.673825042877357e-21 -3.587985538068250e-14)
"freq" 3.162277660168382e+00
"Xopamp:1" (2.565143933934630e-07 1.179855741611497e-12)
"Xopamp:2" (-2.565143933270116e-07 -1.224754789765344e-12)
"Xopamp:3" (-2.652833915468673e-21 4.517006171012912e-14)
"Xopamp:4" (-3.012984857420711e-21 4.531597912442933e-14)
"Xopamp:5" (-1.372977401760432e-33 -1.000899285960280e-25)
"Xopamp:6" (-9.355620223668528e-18 -4.558699267836967e-14)
"dd" (0.000000000000000e+00 0.000000000000000e+00)
"net7" (1.475486674943942e-16 1.639592212952217e-09)
"inn" (1.000006819943995e+00 1.654516296157973e-10)
"out" (6.819943994876207e-06 1.654516296157973e-10)
"inp" (1.000000000000000e+00 0.000000000000000e+00)
"cm" (0.000000000000000e+00 0.000000000000000e+00)
"Xopamp.net1" (-3.256573310802920e-03 -1.051022543505776e-08)
"Xopamp.net3" (9.966337002102558e-01 -7.012973966592608e-09)
"Xopamp.net2" (-2.303424343857220e-08 -3.819020765201662e-09)
