HEADER
"PSFversion" "1.00"
"simulator" "spectre"
"version" "23.1.0.063"
"date" "12:30:35 PM, Fri Feb 7, 2025"
"design" ""
"analysis type" "ac"
"analysis name" "outac3"
"analysis description" "AC Analysis `outac3': freq = (100 mHz -> 100 GHz)"
"xVecSorted" "ascending"
"tolerance.relative" 0.00100000
"start" 0.100000
"stop" 1.00000e+11
"operating point producer" "outac3"
TYPE
"sweep" FLOAT DOUBLE PROP(
"key" "sweep"
)
"V" COMPLEX DOUBLE PROP(
"units" "V"
"key" "node"
"tolerance" 1.00000e-06
)
"I" COMPLEX DOUBLE PROP(
"units" "A"
"key" "branch"
"tolerance" 1.00000e-12
)
"MMF" COMPLEX DOUBLE PROP(
"units" "A*turn"
"key" "node"
"tolerance" 1.00000e-12
)
"Wb" COMPLEX DOUBLE PROP(
"units" "Wb"
"key" "node"
"tolerance" 1.00000e-09
)
"Temp" COMPLEX DOUBLE PROP(
"units" "C"
"key" "node"
"tolerance" 0.000100000
)
"Pwr" COMPLEX DOUBLE PROP(
"units" "W"
"key" "node"
"tolerance" 1.00000e-09
)
"U" COMPLEX DOUBLE PROP(
"units" ""
"key" "node"
"tolerance" 1.00000e-06
)
"V/Sec" COMPLEX DOUBLE PROP(
"units" "V/s"
"key" "node"
"tolerance" 0.000100000
)
"I/Sec" COMPLEX DOUBLE PROP(
"units" "A/s"
"key" "node"
"tolerance" 1.00000e-06
)
"1/Sec" COMPLEX DOUBLE PROP(
"units" "1/s"
"key" "node"
"tolerance" 0.000100000
)
"HOD" COMPLEX DOUBLE PROP(
"units" ""
"key" "node"
"tolerance" 0.0100000
)
"Q" COMPLEX DOUBLE PROP(
"units" "Coul"
"key" "node"
"tolerance" 1.00000e-15
)
SWEEP
"freq" "sweep" PROP(
"sweep_direction" 0
"units" "Hz"
"plot" 0
"grid" 3
)
TRACE
"Xopamp:1" "I"
"Xopamp:2" "I"
"Xopamp:3" "I"
"Xopamp:4" "I"
"Xopamp:5" "I"
"Xopamp:6" "I"
"net8" "V"
"net7" "V"
"inp" "V"
"inn" "V"
"out" "V"
"dd" "V"
"Xopamp.net1" "V"
"Xopamp.net3" "V"
"Xopamp.net2" "V"
"Xopamp.net8" "V"
"vdd:p" "I"
"vddac:p" "I"
"vip:p" "I"
VALUE
"freq" 1.000000000000000e-01
"Xopamp:1" (3.362311441398479e-10 1.721149570155665e-14)
"Xopamp:2" (-3.362311079201158e-10 -1.666002174828351e-14)
"Xopamp:3" (5.664479405432366e-23 -5.512768291952977e-16)
"Xopamp:4" (-7.889747279693622e-23 -5.508801659577059e-16)
"Xopamp:5" (7.335480861454737e-35 -1.468320615172935e-30)
"Xopamp:6" (-7.850613171531243e-21 5.506830445790646e-16)
"net8" (0.000000000000000e+00 0.000000000000000e+00)
"net7" (-2.199796806557798e-18 3.474298525752562e-14)
"inp" (0.000000000000000e+00 0.000000000000000e+00)
"inn" (1.568627112646936e-07 2.167938423561482e-08)
"out" (1.568627112646936e-07 2.167938423561482e-08)
"dd" (1.000000000000000e+00 0.000000000000000e+00)
"Xopamp.net1" (9.999926916732946e-01 -2.397643492042999e-08)
"Xopamp.net3" (1.659801901496394e-03 1.080039378423140e-08)
"Xopamp.net2" (1.000723547023842e+00 5.368222243810926e-09)
"Xopamp.net8" (1.000723547023838e+00 -4.695512712534780e-08)
"vdd:p" (-3.362311979097750e-10 -1.721149570155651e-14)
"vddac:p" (-3.362311979097750e-10 -1.721149570155651e-14)
"vip:p" (-5.664479405432366e-23 5.512768291952977e-16)
"freq" 1.258925411794167e-01
"Xopamp:1" (3.362311441399709e-10 2.166798929407802e-14)
"Xopamp:2" (-3.362311080120424e-10 -2.097372473963562e-14)
"Xopamp:3" (8.977594848347688e-23 -6.940164092078069e-16)
"Xopamp:4" (-1.250440675366046e-22 -6.935170397772496e-16)
"Xopamp:5" (-8.175368131286155e-35 -2.608817104576888e-30)
"Xopamp:6" (4.554082612409143e-20 6.932688781800156e-16)
"net8" (0.000000000000000e+00 0.000000000000000e+00)
"net7" (-3.486442983455645e-18 4.373882703757041e-14)
"inp" (0.000000000000000e+00 0.000000000000000e+00)
"inn" (1.568628249515314e-07 2.729272772583960e-08)
"out" (1.568628249515314e-07 2.729272772583960e-08)
"dd" (1.000000000000000e+00 0.000000000000000e+00)
"Xopamp.net1" (9.999926916732378e-01 -3.018454320516226e-08)
"Xopamp.net3" (1.659801901581659e-03 1.359689019209999e-08)
"Xopamp.net2" (1.000723547023842e+00 6.758191398892529e-09)
"Xopamp.net8" (1.000723547023836e+00 -5.911300275211808e-08)
"vdd:p" (-3.362311979097615e-10 -2.166798929407832e-14)
"vddac:p" (-3.362311979097615e-10 -2.166798929407832e-14)
"vip:p" (-8.977594848347689e-23 6.940164092078069e-16)
"freq" 1.584893192461114e-01
"Xopamp:1" (3.362311441401658e-10 2.727838231470250e-14)
"Xopamp:2" (-3.362311080539576e-10 -2.640435505453078e-14)
"Xopamp:3" (1.422852895972767e-22 -8.737148937540721e-16)
"Xopamp:4" (-1.981814913947616e-22 -8.730862248876217e-16)
"Xopamp:5" (-2.096881828105059e-34 1.399920807182279e-30)
"Xopamp:6" (5.863896578339161e-20 8.727738040133199e-16)
"net8" (0.000000000000000e+00 0.000000000000000e+00)
"net7" (-5.525639750344860e-18 5.506392084882040e-14)
"inp" (0.000000000000000e+00 0.000000000000000e+00)
"inn" (1.568628817949502e-07 3.435950849100394e-08)
"out" (1.568628817949502e-07 3.435950849100394e-08)
"dd" (1.000000000000000e+00 0.000000000000000e+00)
"Xopamp.net1" (9.999926916732946e-01 -3.800008848376926e-08)
"Xopamp.net3" (1.659801901610081e-03 1.711747058409218e-08)
"Xopamp.net2" (1.000723547023842e+00 8.508058889834592e-09)
"Xopamp.net8" (1.000723547023832e+00 -7.441886133209500e-08)
"vdd:p" (-3.362311979097403e-10 -2.727838231470278e-14)
"vddac:p" (-3.362311979097403e-10 -2.727838231470278e-14)
"vip:p" (-1.422852895972767e-22 8.737148937540721e-16)
"freq" 1.995262314968880e-01
"Xopamp:1" (3.362311441404749e-10 3.434144872418145e-14)
"Xopamp:2" (-3.362311079203739e-10 -3.324111356080774e-14)
"Xopamp:3" (2.255069868755491e-22 -1.099941882409198e-15)
"Xopamp:4" (-3.140964965875998e-22 -1.099150435199495e-15)
"Xopamp:5" (8.365577595689143e-34 1.914029362021586e-30)
"Xopamp:6" (8.161468411693589e-20 1.098757127479448e-15)
"net8" (0.000000000000000e+00 0.000000000000000e+00)
"net7" (-8.757548824484675e-18 6.932136919507907e-14)
"inp" (0.000000000000000e+00 0.000000000000000e+00)
"inn" (1.568627112646936e-07 4.325605837689379e-08)
"out" (1.568627112646936e-07 4.325605837689379e-08)
"dd" (1.000000000000000e+00 0.000000000000000e+00)
"Xopamp.net1" (9.999926916732946e-01 -4.783927704336819e-08)
"Xopamp.net3" (1.659801901524816e-03 2.154961870450348e-08)
"Xopamp.net2" (1.000723547023843e+00 1.071101154145478e-08)
"Xopamp.net8" (1.000723547023829e+00 -9.368779564777740e-08)
"vdd:p" (-3.362311979097065e-10 -3.434144872418185e-14)
"vddac:p" (-3.362311979097065e-10 -3.434144872418185e-14)
"vip:p" (-2.255069868755491e-22 1.099941882409198e-15)
"freq" 2.511886431509581e-01
"Xopamp:1" (3.362311441409646e-10 4.323332252624083e-14)
"Xopamp:2" (-3.362311080411983e-10 -4.184808257785692e-14)
"Xopamp:3" (3.574044883473299e-22 -1.384744787262361e-15)
"Xopamp:4" (-4.978093992199681e-22 -1.383748414255454e-15)
"Xopamp:5" (2.395382023535237e-34 -7.015474037517158e-30)
"Xopamp:6" (1.325032339107904e-19 1.383253265162988e-15)
"net8" (0.000000000000000e+00 0.000000000000000e+00)
"net7" (-1.387977951450320e-17 8.727043330207110e-14)
"inp" (0.000000000000000e+00 0.000000000000000e+00)
"inn" (1.568628817949502e-07 5.445615110450178e-08)
"out" (1.568628817949502e-07 5.445615110450178e-08)
"dd" (1.000000000000000e+00 0.000000000000000e+00)
"Xopamp.net1" (9.999926916731809e-01 -6.022608155273417e-08)
"Xopamp.net3" (1.659801901581659e-03 2.712936260124317e-08)
"Xopamp.net2" (1.000723547023844e+00 1.348436461555281e-08)
"Xopamp.net8" (1.000723547023821e+00 -1.179459467159477e-07)
"vdd:p" (-3.362311979096530e-10 -4.323332252624090e-14)
"vddac:p" (-3.362311979096530e-10 -4.323332252624090e-14)
"vip:p" (-3.574044883473299e-22 1.384744787262361e-15)
"freq" 3.162277660168380e-01
"Xopamp:1" (3.362311441417409e-10 5.442752839315744e-14)
"Xopamp:2" (-3.362311079265409e-10 -5.268361459138698e-14)
"Xopamp:3" (5.664479405272178e-22 -1.743290401534546e-15)
"Xopamp:4" (-7.889747279623677e-22 -1.742036042239789e-15)
"Xopamp:5" (6.540559880914228e-34 3.287444722995810e-30)
"Xopamp:6" (2.302109077844892e-19 1.741412701596152e-15)
"net8" (0.000000000000000e+00 0.000000000000000e+00)
"net7" (-2.199796806510875e-17 1.098669661351093e-13)
"inp" (0.000000000000000e+00 0.000000000000000e+00)
"inn" (1.568627112646936e-07 6.855623245309583e-08)
"out" (1.568627112646936e-07 6.855623245309583e-08)
"dd" (1.000000000000000e+00 0.000000000000000e+00)
"Xopamp.net1" (9.999926916733515e-01 -7.582014452013204e-08)
"Xopamp.net3" (1.659801901610081e-03 3.415384398387789e-08)
"Xopamp.net2" (1.000723547023846e+00 1.697580927642478e-08)
"Xopamp.net8" (1.000723547023810e+00 -1.484851495388466e-07)
"vdd:p" (-3.362311979095682e-10 -5.442752839315640e-14)
"vddac:p" (-3.362311979095682e-10 -5.442752839315640e-14)
"vip:p" (-5.664479405272178e-22 1.743290401534546e-15)
"freq" 3.981071705534974e-01
"Xopamp:1" (3.362311441429711e-10 6.852019841577237e-14)
"Xopamp:2" (-3.362311079478677e-10 -6.632474119500873e-14)
"Xopamp:3" (8.977594848466335e-22 -2.194672586628141e-15)
"Xopamp:4" (-1.250440675358858e-21 -2.193093441835074e-15)
"Xopamp:5" (7.137372425137053e-34 -2.332861867636548e-30)
"Xopamp:6" (4.306457824218714e-19 2.192308707908557e-15)
"net8" (0.000000000000000e+00 0.000000000000000e+00)
"net7" (-3.486442983473382e-17 1.383143156025817e-13)
"inp" (0.000000000000000e+00 0.000000000000000e+00)
"inn" (1.568627681081125e-07 8.630718317283181e-08)
"out" (1.568627681081125e-07 8.630718317283181e-08)
"dd" (1.000000000000000e+00 0.000000000000000e+00)
"Xopamp.net1" (9.999926916732946e-01 -9.545190665866611e-08)
"Xopamp.net3" (1.659801901581659e-03 4.299714210283939e-08)
"Xopamp.net2" (1.000723547023849e+00 2.137127768385990e-08)
"Xopamp.net8" (1.000723547023792e+00 -1.869317280284977e-07)
"vdd:p" (-3.362311979094338e-10 -6.852019841577243e-14)
"vddac:p" (-3.362311979094338e-10 -6.852019841577243e-14)
"vip:p" (-8.977594848466335e-22 2.194672586628141e-15)
"freq" 5.011872336272725e-01
"Xopamp:1" (3.362311441449208e-10 8.626181909363121e-14)
"Xopamp:2" (-3.362311079801528e-10 -8.349790212041287e-14)
"Xopamp:3" (1.422852895989641e-21 -2.762929089875632e-15)
"Xopamp:4" (-1.981814913944083e-21 -2.760941064365462e-15)
"Xopamp:5" (3.112392667693153e-34 3.865432947016172e-30)
"Xopamp:6" (6.844204865870496e-19 2.759953127387589e-15)
"net8" (0.000000000000000e+00 0.000000000000000e+00)
"net7" (-5.525639750365537e-17 1.741274067591611e-13)
"inp" (0.000000000000000e+00 0.000000000000000e+00)
"inn" (1.568628249515314e-07 1.086543061157644e-07)
"out" (1.568628249515314e-07 1.086543061157644e-07)
"dd" (1.000000000000000e+00 0.000000000000000e+00)
"Xopamp.net1" (9.999926916734083e-01 -1.201668308985354e-07)
"Xopamp.net3" (1.659801901638502e-03 5.413019482734122e-08)
"Xopamp.net2" (1.000723547023853e+00 2.690484455871723e-08)
"Xopamp.net8" (1.000723547023763e+00 -2.353331026856529e-07)
"vdd:p" (-3.362311979092208e-10 -8.626181909363043e-14)
"vddac:p" (-3.362311979092208e-10 -8.626181909363043e-14)
"vip:p" (-1.422852895989641e-21 2.762929089875632e-15)
"freq" 6.309573444801935e-01
"Xopamp:1" (3.362311441480109e-10 1.085971960909738e-13)
"Xopamp:2" (-3.362311079851717e-10 -1.051176308109117e-13)
"Xopamp:3" (2.255069868727415e-21 -3.478321642228896e-15)
"Xopamp:4" (-3.140964965825593e-21 -3.475818866392261e-15)
"Xopamp:5" (3.376983680929284e-33 5.730970676404474e-30)
"Xopamp:6" (1.058636492117398e-18 3.474575100088854e-15)
"net8" (0.000000000000000e+00 0.000000000000000e+00)
"net7" (-8.757548824346625e-17 2.192134172883342e-13)
"inp" (0.000000000000000e+00 0.000000000000000e+00)
"inn" (1.568628817949502e-07 1.367876670699958e-07)
"out" (1.568628817949502e-07 1.367876670699958e-07)
"dd" (1.000000000000000e+00 0.000000000000000e+00)
"Xopamp.net1" (9.999926916732378e-01 -1.512810770722520e-07)
"Xopamp.net3" (1.659801901610081e-03 6.814587781350454e-08)
"Xopamp.net2" (1.000723547023860e+00 3.387119251533941e-08)
"Xopamp.net8" (1.000723547023718e+00 -2.962668232073026e-07)
"vdd:p" (-3.362311979088833e-10 -1.085971960909732e-13)
"vddac:p" (-3.362311979088833e-10 -1.085971960909732e-13)
"vip:p" (-2.255069868727415e-21 3.478321642228896e-15)
"freq" 7.943282347242818e-01
"Xopamp:1" (3.362311441529085e-10 1.367157698303443e-13)
"Xopamp:2" (-3.362311078664916e-10 -1.323352566549969e-13)
"Xopamp:3" (3.574044883488124e-21 -4.378947505795629e-15)
"Xopamp:4" (-4.978093992048402e-21 -4.375796697700285e-15)
"Xopamp:5" (3.901819202245010e-34 -1.596973129741699e-29)
"Xopamp:6" (1.719418820309713e-18 4.374230907677816e-15)
"net8" (0.000000000000000e+00 0.000000000000000e+00)
"net7" (-1.387977951430828e-16 2.759733415493051e-13)
"inp" (0.000000000000000e+00 0.000000000000000e+00)
"inn" (1.568627681081125e-07 1.722054700937364e-07)
"out" (1.568627681081125e-07 1.722054700937364e-07)
"dd" (1.000000000000000e+00 0.000000000000000e+00)
"Xopamp.net1" (9.999926916733515e-01 -1.904515922503196e-07)
"Xopamp.net3" (1.659801901610081e-03 8.579057728889256e-08)
"Xopamp.net2" (1.000723547023873e+00 4.264130498534002e-08)
"Xopamp.net8" (1.000723547023646e+00 -3.729778324072139e-07)
"vdd:p" (-3.362311979083483e-10 -1.367157698303416e-13)
"vddac:p" (-3.362311979083483e-10 -1.367157698303416e-13)
"vip:p" (-3.574044883488124e-21 4.378947505795630e-15)
"freq" 1.000000000000000e+00
"Xopamp:1" (3.362311441606705e-10 1.721149571181105e-13)
"Xopamp:2" (-3.362311078363026e-10 -1.666002174822265e-13)
"Xopamp:3" (5.664479405362099e-21 -5.512768291958902e-15)
"Xopamp:4" (-7.889747279738443e-21 -5.508801659576754e-15)
"Xopamp:5" (1.239845746725172e-32 1.463311605394796e-29)
"Xopamp:6" (2.686807619643944e-18 5.506830447409464e-15)
"net8" (0.000000000000000e+00 0.000000000000000e+00)
"net7" (-2.199796806548894e-16 3.474298527079313e-13)
"inp" (0.000000000000000e+00 0.000000000000000e+00)
"inn" (1.568628249515314e-07 2.167938423554977e-07)
"out" (1.568628249515314e-07 2.167938423554977e-07)
"dd" (1.000000000000000e+00 0.000000000000000e+00)
"Xopamp.net1" (9.999926916733515e-01 -2.397643492062514e-07)
"Xopamp.net3" (1.659801901610081e-03 1.080039378409045e-07)
"Xopamp.net2" (1.000723547023891e+00 5.368222243808216e-08)
"Xopamp.net8" (1.000723547023532e+00 -4.695512712532858e-07)
"vdd:p" (-3.362311979075004e-10 -1.721149571181093e-13)
"vddac:p" (-3.362311979075004e-10 -1.721149571181093e-13)
"vip:p" (-5.664479405362099e-21 5.512768291958902e-15)
"freq" 1.258925411794168e+00
"Xopamp:1" (3.362311441729726e-10 2.166798929483328e-13)
"Xopamp:2" (-3.362311077169263e-10 -2.097372473971972e-13)
"Xopamp:3" (8.977594848428936e-21 -6.940164092076830e-15)
"Xopamp:4" (-1.250440675363923e-20 -6.935170397769943e-15)
"Xopamp:5" (2.878480312139057e-33 -4.068042763055604e-29)
"Xopamp:6" (4.286711368643754e-18 6.932688782340570e-15)
"net8" (0.000000000000000e+00 0.000000000000000e+00)
"net7" (-3.486442983469014e-16 4.373882703789448e-13)
"inp" (0.000000000000000e+00 0.000000000000000e+00)
"inn" (1.568628249515314e-07 2.729272772592634e-07)
"out" (1.568628249515314e-07 2.729272772592634e-07)
"dd" (1.000000000000000e+00 0.000000000000000e+00)
"Xopamp.net1" (9.999926916731241e-01 -3.018454320516225e-07)
"Xopamp.net3" (1.659801901553237e-03 1.359689019223009e-07)
"Xopamp.net2" (1.000723547023920e+00 6.758191398888972e-08)
"Xopamp.net8" (1.000723547023351e+00 -5.911300275208978e-07)
"vdd:p" (-3.362311979061565e-10 -2.166798929483372e-13)
"vddac:p" (-3.362311979061565e-10 -2.166798929483372e-13)
"vip:p" (-8.977594848428936e-21 6.940164092076830e-15)
"freq" 1.584893192461114e+00
"Xopamp:1" (3.362311441924700e-10 2.727838236090668e-13)
"Xopamp:2" (-3.362311075953522e-10 -2.640435505495339e-13)
"Xopamp:3" (1.422852896001785e-20 -8.737148937541797e-15)
"Xopamp:4" (-1.981814913971893e-20 -8.730862248875246e-15)
"Xopamp:5" (-8.789619418319495e-34 -3.171998735547513e-29)
"Xopamp:6" (6.869549679770512e-18 8.727738061036473e-15)
"net8" (0.000000000000000e+00 0.000000000000000e+00)
"net7" (-5.525639750432179e-16 5.506392085096077e-13)
"inp" (0.000000000000000e+00 0.000000000000000e+00)
"inn" (1.568628817949502e-07 3.435950849152436e-07)
"out" (1.568628817949502e-07 3.435950849152436e-07)
"dd" (1.000000000000000e+00 0.000000000000000e+00)
"Xopamp.net1" (9.999926916731809e-01 -3.800008848467994e-07)
"Xopamp.net3" (1.659801901610081e-03 1.711747058446081e-07)
"Xopamp.net2" (1.000723547023966e+00 8.508058889829001e-08)
"Xopamp.net8" (1.000723547023065e+00 -7.441886133203701e-07)
"vdd:p" (-3.362311979040266e-10 -2.727838236090676e-13)
"vddac:p" (-3.362311979040266e-10 -2.727838236090676e-13)
"vip:p" (-1.422852896001785e-20 8.737148937541797e-15)
"freq" 1.995262314968881e+00
"Xopamp:1" (3.362313662679744e-10 3.434144879293118e-13)
"Xopamp:2" (-3.362311088512743e-10 -3.324111356109543e-13)
"Xopamp:3" (2.255069868729029e-20 -1.099941882420123e-14)
"Xopamp:4" (-3.140964965909262e-20 -1.099150435183790e-14)
"Xopamp:5" (-2.590339518546949e-32 -3.283004825562949e-29)
"Xopamp:6" (1.088968212554011e-17 1.098757116223814e-14)
"net8" (0.000000000000000e+00 0.000000000000000e+00)
"net7" (-8.757548824463763e-16 6.932136963685021e-13)
"inp" (0.000000000000000e+00 0.000000000000000e+00)
"inn" (1.568648713146104e-07 4.325605837685043e-07)
"out" (1.568648713146104e-07 4.325605837685043e-07)
"dd" (1.000000000000000e+00 0.000000000000000e+00)
"Xopamp.net1" (9.999926916708505e-01 -4.783927704449571e-07)
"Xopamp.net3" (1.659801902604841e-03 2.154961870424327e-07)
"Xopamp.net2" (1.000723547024032e+00 1.071101154139634e-07)
"Xopamp.net8" (1.000723547022604e+00 -9.368779564748275e-07)
"vdd:p" (-3.362311979006510e-10 -3.434144879293145e-13)
"vddac:p" (-3.362311979006510e-10 -3.434144879293145e-13)
"vip:p" (-2.255069868729030e-20 1.099941882420123e-14)
"freq" 2.511886431509582e+00
"Xopamp:1" (3.362311442723447e-10 4.323332256064715e-13)
"Xopamp:2" (-3.362311085469748e-10 -4.184808257806109e-13)
"Xopamp:3" (3.574044883488497e-20 -1.384744787276274e-14)
"Xopamp:4" (-4.978093992128047e-20 -1.383748414235760e-14)
"Xopamp:5" (6.934509702491440e-32 4.386963999226578e-29)
"Xopamp:6" (1.728801033689583e-17 1.383253271958228e-14)
"net8" (0.000000000000000e+00 0.000000000000000e+00)
"net7" (-1.387977951440739e-15 8.727043386137254e-13)
"inp" (0.000000000000000e+00 0.000000000000000e+00)
"inn" (1.568650418448669e-07 5.445615110406810e-07)
"out" (1.568650418448669e-07 5.445615110406810e-07)
"dd" (1.000000000000000e+00 0.000000000000000e+00)
"Xopamp.net1" (9.999926916707936e-01 -6.022608155308109e-07)
"Xopamp.net3" (1.659801902661684e-03 2.712936260137327e-07)
"Xopamp.net2" (1.000723547024148e+00 1.348436461547488e-07)
"Xopamp.net8" (1.000723547021884e+00 -1.179459467154877e-06)
"vdd:p" (-3.362311978953011e-10 -4.323332256064792e-13)
"vddac:p" (-3.362311978953011e-10 -4.323332256064792e-13)
"vip:p" (-3.574044883488497e-20 1.384744787276274e-14)
"freq" 3.162277660168382e+00
"Xopamp:1" (3.362311443499655e-10 5.442752834521673e-13)
"Xopamp:2" (-3.362311079593980e-10 -5.268361459272291e-13)
"Xopamp:3" (5.664479405433290e-20 -1.743290401553267e-14)
"Xopamp:4" (-7.889747279552727e-20 -1.742036042210541e-14)
"Xopamp:5" (-6.831136233368449e-32 2.332090782926963e-30)
"Xopamp:6" (2.735338637099233e-17 1.741412666482011e-14)
"net8" (0.000000000000000e+00 0.000000000000000e+00)
"net7" (-2.199796806537120e-15 1.098669669310965e-12)
"inp" (0.000000000000000e+00 0.000000000000000e+00)
"inn" (1.568651555317047e-07 6.855623245378972e-07)
"out" (1.568651555317047e-07 6.855623245378972e-07)
"dd" (1.000000000000000e+00 0.000000000000000e+00)
"Xopamp.net1" (9.999926916707368e-01 -7.582014451848415e-07)
"Xopamp.net3" (1.659801902746949e-03 3.415384398491872e-07)
"Xopamp.net2" (1.000723547024333e+00 1.697580927627096e-07)
"Xopamp.net8" (1.000723547020744e+00 -1.484851495380894e-06)
"vdd:p" (-3.362311978868219e-10 -5.442752834521751e-13)
"vddac:p" (-3.362311978868219e-10 -5.442752834521751e-13)
"vip:p" (-5.664479405433290e-20 1.743290401553267e-14)
"freq" 3.981071705534976e+00
"Xopamp:1" (3.362311444729860e-10 6.852019850860336e-13)
"Xopamp:2" (-3.362311070552472e-10 -6.632474119511367e-13)
"Xopamp:3" (8.977594848358358e-20 -2.194672586655148e-14)
"Xopamp:4" (-1.250440675348176e-19 -2.193093441796707e-14)
"Xopamp:5" (1.129763601853989e-31 5.627733960368950e-29)
"Xopamp:6" (4.327228660382935e-17 2.192308683291856e-14)
"net8" (0.000000000000000e+00 0.000000000000000e+00)
"net7" (-3.486442983430252e-15 1.383143166908391e-12)
"inp" (0.000000000000000e+00 0.000000000000000e+00)
"inn" (1.568653829053801e-07 8.630718317179098e-07)
"out" (1.568653829053801e-07 8.630718317179098e-07)
