HEADER
"PSFversion" "1.00"
"simulator" "spectre"
"version" "23.1.0.063"
"date" "12:30:34 PM, Fri Feb 7, 2025"
"design" ""
"analysis type" "ac"
"analysis name" "outac2"
"analysis description" "AC Analysis `outac2': freq = (100 mHz -> 100 GHz)"
"xVecSorted" "ascending"
"tolerance.relative" 0.00100000
"start" 0.100000
"stop" 1.00000e+11
"operating point producer" "outac2"
TYPE
"sweep" FLOAT DOUBLE PROP(
"key" "sweep"
)
"V" COMPLEX DOUBLE PROP(
"units" "V"
"key" "node"
"tolerance" 1.00000e-06
)
"I" COMPLEX DOUBLE PROP(
"units" "A"
"key" "branch"
"tolerance" 1.00000e-12
)
"MMF" COMPLEX DOUBLE PROP(
"units" "A*turn"
"key" "node"
"tolerance" 1.00000e-12
)
"Wb" COMPLEX DOUBLE PROP(
"units" "Wb"
"key" "node"
"tolerance" 1.00000e-09
)
"Temp" COMPLEX DOUBLE PROP(
"units" "C"
"key" "node"
"tolerance" 0.000100000
)
"Pwr" COMPLEX DOUBLE PROP(
"units" "W"
"key" "node"
"tolerance" 1.00000e-09
)
"U" COMPLEX DOUBLE PROP(
"units" ""
"key" "node"
"tolerance" 1.00000e-06
)
"V/Sec" COMPLEX DOUBLE PROP(
"units" "V/s"
"key" "node"
"tolerance" 0.000100000
)
"I/Sec" COMPLEX DOUBLE PROP(
"units" "A/s"
"key" "node"
"tolerance" 1.00000e-06
)
"1/Sec" COMPLEX DOUBLE PROP(
"units" "1/s"
"key" "node"
"tolerance" 0.000100000
)
"HOD" COMPLEX DOUBLE PROP(
"units" ""
"key" "node"
"tolerance" 0.0100000
)
"Q" COMPLEX DOUBLE PROP(
"units" "Coul"
"key" "node"
"tolerance" 1.00000e-15
)
SWEEP
"freq" "sweep" PROP(
"sweep_direction" 0
"units" "Hz"
"plot" 0
"grid" 3
)
TRACE
"Xopamp:1" "I"
"Xopamp:2" "I"
"Xopamp:3" "I"
"Xopamp:4" "I"
"Xopamp:5" "I"
"Xopamp:6" "I"
"dd" "V"
"net7" "V"
"inn" "V"
"out" "V"
"inp" "V"
"cm" "V"
"Xopamp.net1" "V"
"Xopamp.net3" "V"
"Xopamp.net2" "V"
"Xopamp.net8" "V"
"vcm:p" "I"
"vdd:p" "I"
"vin:p" "I"
"vip:p" "I"
VALUE
"freq" 1.000000000000000e-01
"Xopamp:1" (2.018087254930740e-07 1.746116191947812e-14)
"Xopamp:2" (-2.018087258820554e-07 -1.800739225612403e-14)
"Xopamp:3" (-4.569352978917897e-25 5.600363067195906e-16)
"Xopamp:4" (-5.246722182928571e-25 5.623095315953137e-16)
"Xopamp:5" (1.029659582923397e-36 1.004616477647295e-27)
"Xopamp:6" (-9.063302360546887e-22 -5.761155016182536e-16)
"dd" (0.000000000000000e+00 0.000000000000000e+00)
"net7" (5.297732688564244e-20 2.085118290524493e-11)
"inn" (1.000010986441866e+00 3.403387971390640e-12)
"out" (1.098644186598589e-05 3.403387971390640e-12)
"inp" (1.000000000000000e+00 0.000000000000000e+00)
"cm" (0.000000000000000e+00 0.000000000000000e+00)
"Xopamp.net1" (-4.076018611846820e-03 -1.378577944126326e-10)
"Xopamp.net3" (9.965005822579183e-01 -8.665058172126691e-11)
"Xopamp.net2" (-4.128559940824845e-08 -4.764088504972260e-11)
"Xopamp.net8" (-4.128559941088718e-08 -4.706429451272424e-11)
"vcm:p" (4.569352978917897e-25 -5.600363067195903e-16)
"vdd:p" (-2.018087254930740e-07 -1.746116191947812e-14)
"vin:p" (5.246722182928571e-25 -5.623095315953136e-16)
"vip:p" (4.569352978917897e-25 -5.600363067195903e-16)
"freq" 1.258925411794167e-01
"Xopamp:1" (2.018087254930781e-07 2.198230045988351e-14)
"Xopamp:2" (-2.018087258820553e-07 -2.266996371138003e-14)
"Xopamp:3" (-7.241936430238862e-25 7.050439380566452e-16)
"Xopamp:4" (-8.315494270458417e-25 7.079057586194140e-16)
"Xopamp:5" (-1.496918587375257e-36 -7.225923695052596e-28)
"Xopamp:6" (-2.635078711114048e-21 -7.252864451145649e-16)
"dd" (0.000000000000000e+00 0.000000000000000e+00)
"net7" (8.396340473584145e-20 2.625008402538096e-11)
"inn" (1.000010986441866e+00 4.284611603381227e-12)
"out" (1.098644186589397e-05 4.284611603381227e-12)
"inp" (1.000000000000000e+00 0.000000000000000e+00)
"cm" (0.000000000000000e+00 0.000000000000000e+00)
"Xopamp.net1" (-4.076018611846904e-03 -1.735526805999625e-10)
"Xopamp.net3" (9.965005822579182e-01 -1.090866192756498e-10)
"Xopamp.net2" (-4.128559940779645e-08 -5.997632082945929e-11)
"Xopamp.net8" (-4.128559941197855e-08 -5.925043635023800e-11)
"vcm:p" (7.241936430238862e-25 -7.050439380566451e-16)
"vdd:p" (-2.018087254930781e-07 -2.198230045988351e-14)
"vin:p" (8.315494270458417e-25 -7.079057586194144e-16)
"vip:p" (7.241936430238862e-25 -7.050439380566451e-16)
"freq" 1.584893192461114e-01
"Xopamp:1" (2.018087254930752e-07 2.767407665864226e-14)
"Xopamp:2" (-2.018087258820554e-07 -2.853979340070795e-14)
"Xopamp:3" (-1.147769574852153e-24 8.875977300509416e-16)
"Xopamp:4" (-1.317917026119880e-24 8.912005486814094e-16)
"Xopamp:5" (-9.673951165282794e-36 2.839983452424373e-28)
"Xopamp:6" (-2.690046896925907e-21 -9.130815365852027e-16)
"dd" (0.000000000000000e+00 0.000000000000000e+00)
"net7" (1.330730285816922e-19 3.304689784128423e-11)
"inn" (1.000010986441866e+00 5.394006427165806e-12)
"out" (1.098644186601093e-05 5.394006427165806e-12)
"inp" (1.000000000000000e+00 0.000000000000000e+00)
"cm" (0.000000000000000e+00 0.000000000000000e+00)
"Xopamp.net1" (-4.076018611846845e-03 -2.184898798922859e-10)
"Xopamp.net3" (9.965005822579183e-01 -1.373319170928285e-10)
"Xopamp.net2" (-4.128559940806703e-08 -7.550571439812831e-11)
"Xopamp.net8" (-4.128559941469521e-08 -7.459187998119971e-11)
"vcm:p" (1.147769574852153e-24 -8.875977300509414e-16)
"vdd:p" (-2.018087254930752e-07 -2.767407665864226e-14)
"vin:p" (1.317917026119880e-24 -8.912005486814092e-16)
"vip:p" (1.147769574852153e-24 -8.875977300509414e-16)
"freq" 1.995262314968880e-01
"Xopamp:1" (2.018087254930552e-07 3.483959835350503e-14)
"Xopamp:2" (-2.018087258820555e-07 -3.592947115950674e-14)
"Xopamp:3" (-1.819092185697197e-24 1.117419337811951e-15)
"Xopamp:4" (-2.088757722926045e-24 1.121955017739932e-15)
"Xopamp:5" (-2.303968927611684e-35 2.767340854352766e-27)
"Xopamp:6" (-2.360667586581618e-22 -1.149501549447341e-15)
"dd" (0.000000000000000e+00 0.000000000000000e+00)
"net7" (2.109065370993071e-19 4.160357947335855e-11)
"inn" (1.000010986441866e+00 6.790651762541492e-12)
"out" (1.098644186606749e-05 6.790651762541492e-12)
"inp" (1.000000000000000e+00 0.000000000000000e+00)
"cm" (0.000000000000000e+00 0.000000000000000e+00)
"Xopamp.net1" (-4.076018611846444e-03 -2.750624620162583e-10)
"Xopamp.net3" (9.965005822579183e-01 -1.728906402785748e-10)
"Xopamp.net2" (-4.128559940801185e-08 -9.505606259147779e-11)
"Xopamp.net8" (-4.128559941851682e-08 -9.390561322182799e-11)
"vcm:p" (1.819092185697197e-24 -1.117419337811951e-15)
"vdd:p" (-2.018087254930552e-07 -3.483959835350503e-14)
"vin:p" (2.088757722926045e-24 -1.121955017739932e-15)
"vip:p" (1.819092185697197e-24 -1.117419337811951e-15)
"freq" 2.511886431509581e-01
"Xopamp:1" (2.018087254930718e-07 4.386045570392943e-14)
"Xopamp:2" (-2.018087258820556e-07 -4.523252427502867e-14)
"Xopamp:3" (-2.883066821570748e-24 1.406747600001677e-15)
"Xopamp:4" (-3.310457895766019e-24 1.412457682722777e-15)
"Xopamp:5" (-1.181004480591767e-35 -1.270821400223737e-27)
"Xopamp:6" (-3.741405987636451e-22 -1.447136711497364e-15)
"dd" (0.000000000000000e+00 0.000000000000000e+00)
"net7" (3.342643348942406e-19 5.237580342060928e-11)
"inn" (1.000010986441866e+00 8.548924066502696e-12)
"out" (1.098644186612455e-05 8.548924066502696e-12)
"inp" (1.000000000000000e+00 0.000000000000000e+00)
"cm" (0.000000000000000e+00 0.000000000000000e+00)
"Xopamp.net1" (-4.076018611846779e-03 -3.462831232629219e-10)
"Xopamp.net3" (9.965005822579182e-01 -2.176564205080659e-10)
"Xopamp.net2" (-4.128559940780195e-08 -1.196684927415100e-10)
"Xopamp.net8" (-4.128559942445121e-08 -1.182201627950670e-10)
"vcm:p" (2.883066821570748e-24 -1.406747600001677e-15)
"vdd:p" (-2.018087254930718e-07 -4.386045570392943e-14)
"vin:p" (3.310457895766019e-24 -1.412457682722777e-15)
"vip:p" (2.883066821570748e-24 -1.406747600001677e-15)
"freq" 3.162277660168380e-01
"Xopamp:1" (2.018087254930865e-07 5.521704225854865e-14)
"Xopamp:2" (-2.018087258820556e-07 -5.694437424943011e-14)
"Xopamp:3" (-4.569352978917915e-24 1.770990301622569e-15)
"Xopamp:4" (-5.246722182928587e-24 1.778178869863607e-15)
"Xopamp:5" (-1.738262271278458e-36 -4.646323854375275e-27)
"Xopamp:6" (-5.929728880038512e-22 -1.821837180442286e-15)
"dd" (0.000000000000000e+00 0.000000000000000e+00)
"net7" (5.297732688564244e-19 6.593722988934086e-11)
"inn" (1.000010986441866e+00 1.076245775081513e-11)
"out" (1.098644186603233e-05 1.076245775081513e-11)
"inp" (1.000000000000000e+00 0.000000000000000e+00)
"cm" (0.000000000000000e+00 0.000000000000000e+00)
"Xopamp.net1" (-4.076018611847082e-03 -4.359446235511468e-10)
"Xopamp.net3" (9.965005822579180e-01 -2.740131988177576e-10)
"Xopamp.net2" (-4.128559940678290e-08 -1.506537065033895e-10)
"Xopamp.net8" (-4.128559943317019e-08 -1.488303671291638e-10)
"vcm:p" (4.569352978917915e-24 -1.770990301622569e-15)
"vdd:p" (-2.018087254930865e-07 -5.521704225854864e-14)
"vin:p" (5.246722182928587e-24 -1.778178869863608e-15)
"vip:p" (4.569352978917915e-24 -1.770990301622569e-15)
"freq" 3.981071705534974e-01
"Xopamp:1" (2.018087254930740e-07 6.951413766340045e-14)
"Xopamp:2" (-2.018087258820559e-07 -7.168871980132496e-14)
"Xopamp:3" (-7.241936430239070e-24 2.229544694753669e-15)
"Xopamp:4" (-8.315494270458310e-24 2.238594565986731e-15)
"Xopamp:5" (-2.768583069774193e-35 3.707779692447779e-27)
"Xopamp:6" (-1.786831640765529e-21 -2.293557122612717e-15)
"dd" (0.000000000000000e+00 0.000000000000000e+00)
"net7" (8.396340473584211e-19 8.301005429100512e-11)
"inn" (1.000010986441866e+00 1.354913155585794e-11)
"out" (1.098644186609557e-05 1.354913155585794e-11)
"inp" (1.000000000000000e+00 0.000000000000000e+00)
"cm" (0.000000000000000e+00 0.000000000000000e+00)
"Xopamp.net1" (-4.076018611846834e-03 -5.488217647235913e-10)
"Xopamp.net3" (9.965005822579182e-01 -3.449621791586901e-10)
"Xopamp.net2" (-4.128559940595466e-08 -1.896617794981004e-10)
"Xopamp.net8" (-4.128559944777570e-08 -1.873663312255465e-10)
"vcm:p" (7.241936430239069e-24 -2.229544694753670e-15)
"vdd:p" (-2.018087254930740e-07 -6.951413766340046e-14)
"vin:p" (8.315494270458310e-24 -2.238594565986731e-15)
"vip:p" (7.241936430239069e-24 -2.229544694753670e-15)
"freq" 5.011872336272725e-01
"Xopamp:1" (2.018087254930645e-07 8.751311438341580e-14)
"Xopamp:2" (-2.018087258820562e-07 -9.025075109687975e-14)
"Xopamp:3" (-1.147769574852227e-23 2.806830472956261e-15)
"Xopamp:4" (-1.317917026119885e-23 2.818223585825026e-15)
"Xopamp:5" (-5.049629857544842e-35 -1.471748205511145e-27)
"Xopamp:6" (1.051618290133267e-21 -2.887417345057538e-15)
"dd" (0.000000000000000e+00 0.000000000000000e+00)
"net7" (1.330730285816939e-18 1.045034667813599e-10)
"inn" (1.000010986441866e+00 1.705734602340233e-11)
"out" (1.098644186615573e-05 1.705734602340233e-11)
"inp" (1.000000000000000e+00 0.000000000000000e+00)
"cm" (0.000000000000000e+00 0.000000000000000e+00)
"Xopamp.net1" (-4.076018611846651e-03 -6.909256661562912e-10)
"Xopamp.net3" (9.965005822579184e-01 -4.342816534507762e-10)
"Xopamp.net2" (-4.128559940449150e-08 -2.387700338562647e-10)
"Xopamp.net8" (-4.128559947077339e-08 -2.358802356944657e-10)
"vcm:p" (1.147769574852227e-23 -2.806830472956260e-15)
"vdd:p" (-2.018087254930645e-07 -8.751311438341580e-14)
"vin:p" (1.317917026119884e-23 -2.818223585825025e-15)
"vip:p" (1.147769574852227e-23 -2.806830472956260e-15)
"freq" 6.309573444801935e-01
"Xopamp:1" (2.018087254930819e-07 1.101724835625308e-13)
"Xopamp:2" (-2.018087258820568e-07 -1.136189639893722e-13)
"Xopamp:3" (-1.819092185697284e-23 3.533590209002873e-15)
"Xopamp:4" (-2.088757722925937e-23 3.547933288312818e-15)
"Xopamp:5" (-8.979013598756043e-35 9.053498974200392e-27)
"Xopamp:6" (1.804312551822106e-22 -3.635043070144404e-15)
"dd" (0.000000000000000e+00 0.000000000000000e+00)
"net7" (2.109065370993106e-18 1.315620699516415e-10)
"inn" (1.000010986441866e+00 2.147392636661481e-11)
"out" (1.098644186624331e-05 2.147392636661481e-11)
"inp" (1.000000000000000e+00 0.000000000000000e+00)
"cm" (0.000000000000000e+00 0.000000000000000e+00)
"Xopamp.net1" (-4.076018611847017e-03 -8.698238787849126e-10)
"Xopamp.net3" (9.965005822579183e-01 -5.467282094051702e-10)
"Xopamp.net2" (-4.128559940214330e-08 -3.005936631966126e-10)
"Xopamp.net8" (-4.128559950719301e-08 -2.969556228557270e-10)
"vcm:p" (1.819092185697284e-23 -3.533590209002872e-15)
"vdd:p" (-2.018087254930819e-07 -1.101724835625308e-13)
"vin:p" (2.088757722925937e-23 -3.547933288312815e-15)
"vip:p" (1.819092185697284e-23 -3.533590209002872e-15)
"freq" 7.943282347242818e-01
"Xopamp:1" (2.018087254930564e-07 1.386989392373428e-13)
"Xopamp:2" (-2.018087258820574e-07 -1.430378010279470e-13)
"Xopamp:3" (-2.883066821570696e-23 4.448526508980782e-15)
"Xopamp:4" (-3.310457895766083e-23 4.466583376007423e-15)
"Xopamp:5" (-6.782602404244599e-35 2.755762216018974e-27)
"Xopamp:6" (4.937587486351225e-22 -4.576248093975942e-15)
"dd" (0.000000000000000e+00 0.000000000000000e+00)
"net7" (3.342643348942386e-18 1.656268330903632e-10)
"inn" (1.000010986441866e+00 2.703407159399916e-11)
"out" (1.098644186605439e-05 2.703407159399916e-11)
"inp" (1.000000000000000e+00 0.000000000000000e+00)
"cm" (0.000000000000000e+00 0.000000000000000e+00)
"Xopamp.net1" (-4.076018611846532e-03 -1.095043384787716e-09)
"Xopamp.net3" (9.965005822579183e-01 -6.882900361648582e-10)
"Xopamp.net2" (-4.128559939719015e-08 -3.784250012224979e-10)
"Xopamp.net8" (-4.128559956368272e-08 -3.738449797882797e-10)
"vcm:p" (2.883066821570695e-23 -4.448526508980779e-15)
"vdd:p" (-2.018087254930564e-07 -1.386989392373428e-13)
"vin:p" (3.310457895766083e-23 -4.466583376007424e-15)
"vip:p" (2.883066821570695e-23 -4.448526508980779e-15)
"freq" 1.000000000000000e+00
"Xopamp:1" (2.018087254930691e-07 1.746116191947867e-13)
"Xopamp:2" (-2.018087258820585e-07 -1.800739225612404e-13)
"Xopamp:3" (-4.569352978917923e-23 5.600363067195899e-15)
"Xopamp:4" (-5.246722182928760e-23 5.623095315953131e-15)
"Xopamp:5" (-1.461139478072103e-35 1.650192954193896e-26)
"Xopamp:6" (-8.475311965114475e-22 -5.761155016174931e-15)
"dd" (0.000000000000000e+00 0.000000000000000e+00)
"net7" (5.297732688564218e-18 2.085118290524494e-10)
"inn" (1.000010986441866e+00 3.403387971393949e-11)
"out" (1.098644186611439e-05 3.403387971393949e-11)
"inp" (1.000000000000000e+00 0.000000000000000e+00)
"cm" (0.000000000000000e+00 0.000000000000000e+00)
"Xopamp.net1" (-4.076018611846827e-03 -1.378577944126319e-09)
"Xopamp.net3" (9.965005822579183e-01 -8.665058172126707e-10)
"Xopamp.net2" (-4.128559939069058e-08 -4.764088504972528e-10)
"Xopamp.net8" (-4.128559965456351e-08 -4.706429451270746e-10)
"vcm:p" (4.569352978917923e-23 -5.600363067195900e-15)
"vdd:p" (-2.018087254930691e-07 -1.746116191947868e-13)
"vin:p" (5.246722182928760e-23 -5.623095315953133e-15)
"vip:p" (4.569352978917923e-23 -5.600363067195900e-15)
"freq" 1.258925411794168e+00
"Xopamp:1" (2.018087254930925e-07 2.198230045988509e-13)
"Xopamp:2" (-2.018087258820605e-07 -2.266996371138007e-13)
"Xopamp:3" (-7.241936430239208e-23 7.050439380566450e-15)
"Xopamp:4" (-8.315494270458742e-23 7.079057586194172e-15)
"Xopamp:5" (-4.647669564281160e-34 1.212743406862376e-26)
"Xopamp:6" (1.613441379197306e-21 -7.252864451159486e-15)
"dd" (0.000000000000000e+00 0.000000000000000e+00)
"net7" (8.396340473584164e-18 2.625008402538099e-10)
"inn" (1.000010986441866e+00 4.284611603381888e-11)
"out" (1.098644186626460e-05 4.284611603381888e-11)
"inp" (1.000000000000000e+00 0.000000000000000e+00)
"cm" (0.000000000000000e+00 0.000000000000000e+00)
"Xopamp.net1" (-4.076018611847363e-03 -1.735526805999598e-09)
"Xopamp.net3" (9.965005822579182e-01 -1.090866192756545e-09)
"Xopamp.net2" (-4.128559938059654e-08 -5.997632082946700e-10)
"Xopamp.net8" (-4.128559979880696e-08 -5.925043635019583e-10)
"vcm:p" (7.241936430239210e-23 -7.050439380566445e-15)
"vdd:p" (-2.018087254930925e-07 -2.198230045988508e-13)
"vin:p" (8.315494270458742e-23 -7.079057586194175e-15)
"vip:p" (7.241936430239210e-23 -7.050439380566445e-15)
"freq" 1.584893192461114e+00
"Xopamp:1" (2.018087254930645e-07 2.767407665864440e-13)
"Xopamp:2" (-2.018087258820635e-07 -2.853979340070797e-13)
"Xopamp:3" (-1.147769574852226e-22 8.875977300509411e-15)
"Xopamp:4" (-1.317917026119811e-22 8.912005486814114e-15)
"Xopamp:5" (6.458165963417648e-35 2.816764185459859e-27)
"Xopamp:6" (3.517875342924841e-22 -9.130815365862145e-15)
"dd" (0.000000000000000e+00 0.000000000000000e+00)
"net7" (1.330730285816947e-17 3.304689784128427e-10)
"inn" (1.000010986441866e+00 5.394006427151248e-11)
"out" (1.098644186637366e-05 5.394006427151248e-11)
"inp" (1.000000000000000e+00 0.000000000000000e+00)
"cm" (0.000000000000000e+00 0.000000000000000e+00)
"Xopamp.net1" (-4.076018611846898e-03 -2.184898798922793e-09)
"Xopamp.net3" (9.965005822579185e-01 -1.373319170928364e-09)
"Xopamp.net2" (-4.128559936411383e-08 -7.550571439813959e-10)
"Xopamp.net8" (-4.128560002693267e-08 -7.459187998113021e-10)
"vcm:p" (1.147769574852226e-22 -8.875977300509405e-15)
"vdd:p" (-2.018087254930645e-07 -2.767407665864440e-13)
"vin:p" (1.317917026119811e-22 -8.912005486814113e-15)
"vip:p" (1.147769574852226e-22 -8.875977300509405e-15)
"freq" 1.995262314968881e+00
"Xopamp:1" (2.018087254930749e-07 3.483959835350855e-13)
"Xopamp:2" (-2.018087258820682e-07 -3.592947115950675e-13)
"Xopamp:3" (-1.819092185697295e-22 1.117419337811952e-14)
"Xopamp:4" (-2.088757722925895e-22 1.121955017739936e-14)
"Xopamp:5" (-5.173585736839052e-34 -4.634325059726427e-27)
"Xopamp:6" (1.804312551846995e-21 -1.149501549449074e-14)
"dd" (0.000000000000000e+00 0.000000000000000e+00)
"net7" (2.109065370993110e-17 4.160357947335855e-10)
"inn" (1.000010986441866e+00 6.790651762522302e-11)
"out" (1.098644186649501e-05 6.790651762522302e-11)
"inp" (1.000000000000000e+00 0.000000000000000e+00)
"cm" (0.000000000000000e+00 0.000000000000000e+00)
"Xopamp.net1" (-4.076018611847270e-03 -2.750624620162438e-09)
"Xopamp.net3" (9.965005822579184e-01 -1.728906402785824e-09)
"Xopamp.net2" (-4.128559933779690e-08 -9.505606259149696e-10)
"Xopamp.net8" (-4.128560038829399e-08 -9.390561322170138e-10)
"vcm:p" (1.819092185697295e-22 -1.117419337811951e-14)
"vdd:p" (-2.018087254930749e-07 -3.483959835350855e-13)
"vin:p" (2.088757722925895e-22 -1.121955017739936e-14)
"vip:p" (1.819092185697295e-22 -1.117419337811951e-14)
"freq" 2.511886431509582e+00
"Xopamp:1" (2.018087254930935e-07 4.386045570393579e-13)
"Xopamp:2" (-2.018087258820758e-07 -4.523252427502869e-13)
"Xopamp:3" (-2.883066821571043e-22 1.406747600001672e-14)
"Xopamp:4" (-3.310457895765535e-22 1.412457682722787e-14)
"Xopamp:5" (-3.141485142685547e-33 3.898431414350524e-26)
"Xopamp:6" (1.549455697423279e-21 -1.447136711499420e-14)
"dd" (0.000000000000000e+00 0.000000000000000e+00)
"net7" (3.342643348942527e-17 5.237580342060928e-10)
"inn" (1.000010986441867e+00 8.548924066455050e-11)
"out" (1.098644186684672e-05 8.548924066455050e-11)
"inp" (1.000000000000000e+00 0.000000000000000e+00)
"cm" (0.000000000000000e+00 0.000000000000000e+00)
"Xopamp.net1" (-4.076018611847897e-03 -3.462831232628742e-09)
"Xopamp.net3" (9.965005822579186e-01 -2.176564205080851e-09)
"Xopamp.net2" (-4.128559929668636e-08 -1.196684927415494e-09)
"Xopamp.net8" (-4.128560096161202e-08 -1.182201627948097e-09)
"vcm:p" (2.883066821571043e-22 -1.406747600001672e-14)
"vdd:p" (-2.018087254930935e-07 -4.386045570393579e-13)
"vin:p" (3.310457895765535e-22 -1.412457682722787e-14)
"vip:p" (2.883066821571043e-22 -1.406747600001672e-14)
"freq" 3.162277660168382e+00
"Xopamp:1" (2.018087254930911e-07 5.521704225856204e-13)
"Xopamp:2" (-2.018087258820876e-07 -5.694437424943011e-13)
"Xopamp:3" (-4.569352978918629e-22 1.770990301622558e-14)
"Xopamp:4" (-5.246722182927865e-22 1.778178869863619e-14)
"Xopamp:5" (2.665645029472685e-33 -2.059496745306415e-26)
"Xopamp:6" (5.077215191152766e-21 -1.821837180445377e-14)
"dd" (0.000000000000000e+00 0.000000000000000e+00)
"net7" (5.297732688564468e-17 6.593722988934082e-10)
"inn" (1.000010986441867e+00 1.076245775074631e-10)
"out" (1.098644186706920e-05 1.076245775074631e-10)
"inp" (1.000000000000000e+00 0.000000000000000e+00)
"cm" (0.000000000000000e+00 0.000000000000000e+00)
"Xopamp.net1" (-4.076018611848251e-03 -4.359446235510845e-09)
"Xopamp.net3" (9.965005822579187e-01 -2.740131988177947e-09)
"Xopamp.net2" (-4.128559923027187e-08 -1.506537065034644e-09)
