HEADER
"PSFversion" "1.00"
"simulator" "spectre"
"version" "23.1.0.063"
"date" "12:30:32 PM, Fri Feb 7, 2025"
"design" ""
"analysis type" "tran"
"analysis name" "outtran2"
"analysis description" "Transient Analysis `outtran2': time = (0 s -> 1 us)"
"xVecSorted" "ascending"
"tolerance.relative" 0.00100000
"start" 0.00000
"outputstart" 0.00000
"stop" 1.00000e-06
"step" 1.00000e-09
"istep" 0.00100000
"maxstep" 2.00000e-08
"ic" "all"
"useprevic" "no"
"skipdc" "no"
"reltol" 0.00100000
"abstol(V)" 1.00000e-06
"abstol(I)" 1.00000e-12
"temp" 27.0000
"tnom" 27.0000
"tempeffects" "all"
"errpreset" "moderate"
"method" "traponly"
"lteratio" 14.0000
"relref" "sigglobal"
"cmin" 0.00000
"gmin" 1.00000e-12
"rabsshort" 0.00100000
TYPE
"sweep" FLOAT DOUBLE PROP(
"key" "sweep"
)
"LogicV" FLOAT DOUBLE PROP(
"key" "node"
)
"V" FLOAT DOUBLE PROP(
"units" "V"
"key" "node"
"tolerance" 1.00000e-06
)
"I" FLOAT DOUBLE PROP(
"units" "A"
"key" "branch"
"tolerance" 1.00000e-12
)
"MMF" FLOAT DOUBLE PROP(
"units" "A*turn"
"key" "node"
"tolerance" 1.00000e-12
)
"Wb" FLOAT DOUBLE PROP(
"units" "Wb"
"key" "node"
"tolerance" 1.00000e-09
)
"Temp" FLOAT DOUBLE PROP(
"units" "C"
"key" "node"
"tolerance" 0.000100000
)
"Pwr" FLOAT DOUBLE PROP(
"units" "W"
"key" "node"
"tolerance" 1.00000e-09
)
"U" FLOAT DOUBLE PROP(
"units" ""
"key" "node"
"tolerance" 1.00000e-06
)
"V/Sec" FLOAT DOUBLE PROP(
"units" "V/s"
"key" "node"
"tolerance" 0.000100000
)
"I/Sec" FLOAT DOUBLE PROP(
"units" "A/s"
"key" "node"
"tolerance" 1.00000e-06
)
"1/Sec" FLOAT DOUBLE PROP(
"units" "1/s"
"key" "node"
"tolerance" 0.000100000
)
"HOD" FLOAT DOUBLE PROP(
"units" ""
"key" "node"
"tolerance" 0.0100000
)
"Q" FLOAT DOUBLE PROP(
"units" "Coul"
"key" "node"
"tolerance" 1.00000e-15
)
SWEEP
"time" "sweep" PROP(
"sweep_direction" 0
"units" "s"
"plot" 0
"grid" 1
)
TRACE
"Xopamp:1" "I"
"Xopamp:2" "I"
"Xopamp:3" "I"
"Xopamp:4" "I"
"Xopamp:5" "I"
"Xopamp:6" "I"
"dd" "V"
"net7" "V"
"net8" "V"
"inp" "V"
"out" "V"
"Xopamp.net1" "V"
"Xopamp.net3" "V"
"Xopamp.net2" "V"
"Xopamp.net8" "V"
"vcm:p" "I"
"vdd:p" "I"
"vip:p" "I"
VALUE
"time" 0.000000000000000e+00
"Xopamp:1" 5.366344221687539e-05
"Xopamp:2" -6.366009140106446e-05
"Xopamp:3" 0.000000000000000e+00
"Xopamp:4" -8.470329472543003e-22
"Xopamp:5" 9.999999999999997e-06
"Xopamp:6" -3.351147684971581e-09
"dd" 3.300000000000000e+00
"net7" 8.715718574710847e-01
"net8" 1.650000000000000e+00
"inp" 1.650000000000000e+00
"out" 1.650008546730447e+00
"Xopamp.net1" 2.251983274770443e+00
"Xopamp.net3" 7.549598398181044e-01
"Xopamp.net2" 2.255681705715900e+00
"Xopamp.net8" 2.255681705715900e+00
"vcm:p" 0.000000000000000e+00
"vdd:p" -6.366009140578219e-05
"vip:p" 0.000000000000000e+00
"time" 1.000000000000000e-09
"Xopamp:1" 5.366330855067938e-05
"Xopamp:2" -6.366018456702148e-05
"Xopamp:3" -5.565734698033441e-12
"Xopamp:4" 8.807866693652299e-12
"Xopamp:5" 1.000000000000006e-05
"Xopamp:6" -3.127225789963306e-09
"dd" 3.300000000000000e+00
"net7" 8.715719078058747e-01
"net8" 1.650000000000000e+00
"inp" 1.650000000000000e+00
"out" 1.650010105939408e+00
"Xopamp.net1" 2.251982798234697e+00
"Xopamp.net3" 7.549605087767042e-01
"Xopamp.net2" 2.255682016499754e+00
"Xopamp.net8" 2.255683250100601e+00
"vcm:p" 5.565734698640361e-12
"vdd:p" -6.366330855067938e-05
"vip:p" 5.565734698640361e-12
"time" 3.000000000000000e-09
"Xopamp:1" 5.366296405948881e-05
"Xopamp:2" -6.366021341867092e-05
"Xopamp:3" -5.816399254480200e-12
"Xopamp:4" 7.701310030430049e-12
"Xopamp:5" 1.000000000000001e-05
"Xopamp:6" -2.752525728829523e-09
"dd" 3.300000000000000e+00
"net7" 8.715719651936507e-01
"net8" 1.650000000000000e+00
"inp" 1.650000000000000e+00
"out" 1.650012850763827e+00
"Xopamp.net1" 2.251980943442643e+00
"Xopamp.net3" 7.549618101710149e-01
"Xopamp.net2" 2.255683553457855e+00
"Xopamp.net8" 2.255685937623672e+00
"vcm:p" 5.816399254925149e-12
"vdd:p" -6.366296405948880e-05
"vip:p" 5.816399254925149e-12
"time" 7.000000000000001e-09
"Xopamp:1" 5.366200748768486e-05
"Xopamp:2" -6.366022709586899e-05
"Xopamp:3" -4.917433829844365e-12
"Xopamp:4" 5.195082215162399e-12
"Xopamp:5" 1.000000000000000e-05
"Xopamp:6" -1.780669463989423e-09
"dd" 3.300000000000000e+00
"net7" 8.715720154337673e-01
"net8" 1.650000000000000e+00
"inp" 1.650000000000000e+00
"out" 1.650017371062627e+00
"Xopamp.net1" 2.251976687053471e+00
"Xopamp.net3" 7.549640305049500e-01
"Xopamp.net2" 2.255688052363845e+00
"Xopamp.net8" 2.255690345507418e+00
"vcm:p" 4.917433828440489e-12
"vdd:p" -6.366200748768501e-05
"vip:p" 4.917433828440489e-12
"time" 1.000000000000000e-08
"Xopamp:1" 5.366104005442628e-05
"Xopamp:2" -6.366019298864042e-05
"Xopamp:3" -3.299466232103468e-12
"Xopamp:4" 2.596230249901613e-12
"Xopamp:5" 9.999999999999901e-06
"Xopamp:6" -8.463625501620914e-10
"dd" 3.300000000000000e+00
"net7" 8.715719869434080e-01
"net8" 1.650000000000000e+00
"inp" 1.650000000000000e+00
"out" 1.650019335493153e+00
"Xopamp.net1" 2.251973613932409e+00
"Xopamp.net3" 7.549650684816548e-01
"Xopamp.net2" 2.255692806605619e+00
"Xopamp.net8" 2.255692278128774e+00
"vcm:p" 3.299466234422813e-12
"vdd:p" -6.366104005442618e-05
"vip:p" 3.299466234422813e-12
"time" 1.000837500000000e-08
"Xopamp:1" 5.393982247407538e-05
"Xopamp:2" -6.310677972887793e-05
"Xopamp:3" -1.291919417944355e-06
"Xopamp:4" 4.632402382672461e-07
"Xopamp:5" 1.000000000001224e-05
"Xopamp:6" -4.363565531049809e-09
"dd" 3.300000000000000e+00
"net7" 8.715677675716632e-01
"net8" 1.650000000000000e+00
"inp" 1.648325000000000e+00
"out" 1.650017413947086e+00
"Xopamp.net1" 2.251961837819943e+00
"Xopamp.net3" 7.544742976036806e-01
"Xopamp.net2" 2.255687731318394e+00
"Xopamp.net8" 2.255690356318519e+00
"vcm:p" 1.291919417944315e-06
"vdd:p" -6.393982247407043e-05
"vip:p" 1.291919417944315e-06
"time" 1.011197166398171e-08
"Xopamp:1" 5.363003603359502e-05
"Xopamp:2" -6.296231335668860e-05
"Xopamp:3" -1.182350254087378e-06
"Xopamp:4" 5.639707474614815e-07
"Xopamp:5" 9.999999999988796e-06
"Xopamp:6" -4.934317027221871e-08
"dd" 3.300000000000000e+00
"net7" 8.715111404044976e-01
"net8" 1.650000000000000e+00
"inp" 1.627605667203659e+00
"out" 1.649992200998919e+00
"Xopamp.net1" 2.251545531286925e+00
"Xopamp.net3" 7.477986538353928e-01
"Xopamp.net2" 2.255745478865880e+00
"Xopamp.net8" 2.255665191712238e+00
"vcm:p" 1.182350254087418e-06
"vdd:p" -6.363003603359989e-05
"vip:p" 1.182350254087418e-06
"time" 1.031916499194512e-08
"Xopamp:1" 5.329277500065015e-05
"Xopamp:2" -6.281624834534233e-05
"Xopamp:3" -1.102929169660094e-06
"Xopamp:4" 6.389096818871037e-07
"Xopamp:5" 1.000000109408563e-05
"Xopamp:6" -1.145472841541734e-08
"dd" 3.300000000000000e+00
"net7" 8.713858745200521e-01
"net8" 1.650000000000000e+00
"inp" 1.586167001610976e+00
"out" 1.649933049726011e+00
"Xopamp.net1" 2.248934673500413e+00
"Xopamp.net3" 7.325041800344129e-01
"Xopamp.net2" 2.256501253298594e+00
"Xopamp.net8" 2.255607253356386e+00
"vcm:p" 1.103120941533107e-06
"vdd:p" -6.329207110249480e-05
"vip:p" 1.103120941533107e-06
"time" 1.065958249597256e-08
"Xopamp:1" 5.299656997882814e-05
"Xopamp:2" -6.280146801367650e-05
"Xopamp:3" -1.129198067164252e-06
"Xopamp:4" 5.714076601931385e-07
"Xopamp:5" 9.999998905913335e-06
"Xopamp:6" 3.643616883831746e-07
"dd" 3.300000000000000e+00
"net7" 8.711988247979817e-01
"net8" 1.650000000000000e+00
"inp" 1.518083500805488e+00
"out" 1.649799737449064e+00
"Xopamp.net1" 2.239355311136078e+00
"Xopamp.net3" 7.081590667523540e-01
"Xopamp.net2" 2.259271101999487e+00
"Xopamp.net8" 2.255483516838111e+00
"vcm:p" 1.129006295291241e-06
"vdd:p" -6.299131629917740e-05
"vip:p" 1.129006295291241e-06
"time" 1.100000000000000e-08
"Xopamp:1" 5.261593103575600e-05
"Xopamp:2" -6.290734181863178e-05
"Xopamp:3" -1.184660032092247e-06
"Xopamp:4" 4.098523840990170e-07
"Xopamp:5" 1.000000867287245e-05
"Xopamp:6" 1.068359409009047e-06
"dd" 3.300000000000000e+00
"net7" 8.710699462214516e-01
"net8" 1.650000000000000e+00
"inp" 1.450000000000000e+00
"out" 1.649594336541144e+00
"Xopamp.net1" 2.224229903641032e+00
"Xopamp.net3" 6.893839086769787e-01
"Xopamp.net2" 2.263591344230328e+00
"Xopamp.net8" 2.255302816526238e+00
"vcm:p" 1.186023705687268e-06
"vdd:p" -6.261915143398230e-05
"vip:p" 1.186023705687268e-06
"time" 1.100837500000000e-08
"Xopamp:1" 5.231121192607734e-05
"Xopamp:2" -6.336885299187374e-05
"Xopamp:3" -3.912793379493396e-08
"Xopamp:4" 6.001470116335842e-09
"Xopamp:5" 9.999999999990660e-06
"Xopamp:6" 1.090767529472096e-06
"dd" 3.300000000000000e+00
"net7" 8.710711179746724e-01
"net8" 1.650000000000000e+00
"inp" 1.450000000000000e+00
"out" 1.649589743820958e+00
"Xopamp.net1" 2.223809636952429e+00
"Xopamp.net3" 6.894162163752494e-01
"Xopamp.net2" 2.263720904174156e+00
"Xopamp.net8" 2.255299071403834e+00
"vcm:p" 3.912793379471148e-08
"vdd:p" -6.231121192610195e-05
"vip:p" 3.912793379471148e-08
"time" 1.106017333199085e-08
"Xopamp:1" 5.214672947420850e-05
"Xopamp:2" -6.336426411027531e-05
"Xopamp:3" -3.300871077225604e-08
"Xopamp:4" 9.702290503100948e-09
"Xopamp:5" 1.000000000001398e-05
"Xopamp:6" 1.240841056345272e-06
"dd" 3.300000000000000e+00
"net7" 8.710781073818864e-01
"net8" 1.650000000000000e+00
"inp" 1.450000000000000e+00
"out" 1.649559347104906e+00
"Xopamp.net1" 2.221240938566301e+00
"Xopamp.net3" 6.895997457970199e-01
"Xopamp.net2" 2.264526780009145e+00
"Xopamp.net8" 2.255274175537197e+00
"vcm:p" 3.300871077252960e-08
"vdd:p" -6.214672947418170e-05
"vip:p" 3.300871077252960e-08
"time" 1.116376999597256e-08
"Xopamp:1" 5.181897308787896e-05
"Xopamp:2" -6.335435409170049e-05
"Xopamp:3" -2.759261543053126e-08
"Xopamp:4" 1.652579649704179e-08
"Xopamp:5" 9.999999999983887e-06
"Xopamp:6" 1.546447822744686e-06
"dd" 3.300000000000000e+00
"net7" 8.710905630058955e-01
"net8" 1.650000000000000e+00
"inp" 1.450000000000000e+00
"out" 1.649486479361971e+00
"Xopamp.net1" 2.216279421484459e+00
"Xopamp.net3" 6.898699053327528e-01
"Xopamp.net2" 2.266163406100472e+00
"Xopamp.net8" 2.255213882889096e+00
"vcm:p" 2.759261543025969e-08
"vdd:p" -6.181897308790711e-05
"vip:p" 2.759261543025969e-08
"time" 1.137096332393598e-08
"Xopamp:1" 5.117051098216919e-05
"Xopamp:2" -6.334150669231391e-05
"Xopamp:3" -1.687600457012383e-08
"Xopamp:4" 2.209932472916015e-08
"Xopamp:5" 1.000000000001454e-05
"Xopamp:6" 2.165772390001227e-06
"dd" 3.300000000000000e+00
"net7" 8.711105063188120e-01
"net8" 1.650000000000000e+00
"inp" 1.450000000000000e+00
"out" 1.649292191830116e+00
"Xopamp.net1" 2.207001019866795e+00
"Xopamp.net3" 6.901362190221711e-01
"Xopamp.net2" 2.269529213654796e+00
"Xopamp.net8" 2.255051250740717e+00
"vcm:p" 1.687600457038131e-08
"vdd:p" -6.117051098214008e-05
"vip:p" 1.687600457038131e-08
"time" 1.178534997986281e-08
"Xopamp:1" 4.986782973701796e-05
"Xopamp:2" -6.331830292477704e-05
"Xopamp:3" -9.983153832533763e-09
"Xopamp:4" 2.311839979187666e-08
"Xopamp:5" 9.999999999985367e-06
"Xopamp:6" 3.437654685899298e-06
"dd" 3.300000000000000e+00
"net7" 8.711355695582509e-01
"net8" 1.650000000000000e+00
"inp" 1.450000000000000e+00
"out" 1.648707011298521e+00
"Xopamp.net1" 2.190696986458358e+00
"Xopamp.net3" 6.900553045945662e-01
"Xopamp.net2" 2.276570669098534e+00
"Xopamp.net8" 2.254556929276994e+00
"vcm:p" 9.983153832268615e-09
"vdd:p" -5.986751517203128e-05
"vip:p" 9.983153832268615e-09
"time" 1.261412329171648e-08
"Xopamp:1" 4.722801653965748e-05
"Xopamp:2" -6.326367621636374e-05
"Xopamp:3" -9.694428464244843e-10
"Xopamp:4" 1.207004296538263e-08
"Xopamp:5" 1.000000033055885e-05
"Xopamp:6" 6.027320628624142e-06
"dd" 3.300000000000000e+00
"net7" 8.711430851226757e-01
"net8" 1.650000000000000e+00
"inp" 1.450000000000000e+00
"out" 1.646738640915649e+00
"Xopamp.net1" 2.165438746440263e+00
"Xopamp.net3" 6.887503856837743e-01
"Xopamp.net2" 2.291495948352242e+00
"Xopamp.net8" 2.252890425307914e+00
"vcm:p" 9.694428466919873e-10
"vdd:p" -5.722525893914570e-05
"vip:p" 9.694428466919873e-10
"time" 1.427166991542381e-08
"Xopamp:1" 4.218021434809480e-05
"Xopamp:2" -6.309059513984632e-05
"Xopamp:3" 1.039304637865465e-08
"Xopamp:4" -5.467216337776490e-09
"Xopamp:5" 1.000000307580924e-05
"Xopamp:6" 1.092600024121677e-05
"dd" 3.300000000000000e+00
"net7" 8.710411030030272e-01
"net8" 1.650000000000000e+00
"inp" 1.450000000000000e+00
"out" 1.639710595459856e+00
"Xopamp.net1" 2.135693303890081e+00
"Xopamp.net3" 6.834199845469756e-01
"Xopamp.net2" 2.322250736362742e+00
"Xopamp.net8" 2.246996358666328e+00
"vcm:p" -1.033561585030820e-08
"vdd:p" -5.215952563992222e-05
"vip:p" -1.033561585030820e-08
"time" 1.758676316283848e-08
"Xopamp:1" 3.473795455383532e-05
"Xopamp:2" -6.267243604840496e-05
"Xopamp:3" 3.606285413065014e-08
"Xopamp:4" -2.525974959870926e-08
"Xopamp:5" 1.000000382048947e-05
"Xopamp:6" 1.800232111103400e-05
"dd" 3.300000000000000e+00
"net7" 8.706230998292150e-01
"net8" 1.650000000000000e+00
"inp" 1.450000000000000e+00
"out" 1.615745626115145e+00
"Xopamp.net1" 2.119639825110263e+00
"Xopamp.net3" 6.647580682131937e-01
"Xopamp.net2" 2.375718375812493e+00
"Xopamp.net8" 2.227483045995559e+00
"vcm:p" -3.587222221812206e-08
"vdd:p" -4.464113491768563e-05
"vip:p" -3.587222221812206e-08
"time" 2.000000000000000e-08
"Xopamp:1" 3.158913053279440e-05
"Xopamp:2" -6.240480794356804e-05
"Xopamp:3" 4.458854513368104e-08
"Xopamp:4" -3.591398317422959e-08
"Xopamp:5" 9.999997068377220e-06
"Xopamp:6" 2.074953492908220e-05
"dd" 3.300000000000000e+00
"net7" 8.702934979866843e-01
"net8" 1.650000000000000e+00
"inp" 1.450000000000000e+00
"out" 1.592376739510177e+00
"Xopamp.net1" 2.126750989324504e+00
"Xopamp.net3" 6.471208592086778e-01
"Xopamp.net2" 2.402567462230947e+00
"Xopamp.net8" 2.209069298814746e+00
"vcm:p" -4.469388353174446e-08
"vdd:p" -4.162109390698404e-05
"vip:p" -4.469388353174446e-08
"time" 2.482647367432305e-08
"Xopamp:1" 3.232572603531795e-05
"Xopamp:2" -6.225802704030985e-05
"Xopamp:3" 5.038148801226159e-08
"Xopamp:4" -3.721818400204223e-08
"Xopamp:5" 9.999996215006191e-06
"Xopamp:6" 1.991699137718217e-05
"dd" 3.300000000000000e+00
"net7" 8.700726374013134e-01
"net8" 1.650000000000000e+00
"inp" 1.450000000000000e+00
"out" 1.544528678374750e+00
"Xopamp.net1" 2.154609220046895e+00
"Xopamp.net3" 6.131589418686427e-01
"Xopamp.net2" 2.402140926476269e+00
"Xopamp.net8" 2.174428564715960e+00
"vcm:p" -5.037951966885294e-08
"vdd:p" -4.238049405021905e-05
"vip:p" -5.037951966885294e-08
"time" 3.184092974710487e-08
"Xopamp:1" 3.758143932643843e-05
"Xopamp:2" -6.235923696624761e-05
"Xopamp:3" 3.958126351482627e-08
"Xopamp:4" -4.208390206857803e-08
"Xopamp:5" 1.000000452148375e-05
"Xopamp:6" 1.478234228145061e-05
"dd" 3.300000000000000e+00
"net7" 8.701272489977990e-01
"net8" 1.650000000000000e+00
"inp" 1.450000000000000e+00
"out" 1.483826086941140e+00
"Xopamp.net1" 2.200869294438926e+00
"Xopamp.net3" 5.753696745399235e-01
"Xopamp.net2" 2.367128645696975e+00
"Xopamp.net8" 2.133183270157603e+00
"vcm:p" -3.956959486465089e-08
"vdd:p" -4.753110218521849e-05
"vip:p" -3.956959486465089e-08
"time" 3.919782177080017e-08
"Xopamp:1" 5.022126648610932e-05
"Xopamp:2" -6.298890386848124e-05
"Xopamp:3" 1.709176475709843e-08
"Xopamp:4" -5.628809682131189e-09
"Xopamp:5" 9.999998018294838e-06
"Xopamp:6" 2.754082780648436e-06
"dd" 3.300000000000000e+00
"net7" 8.708286213878487e-01
"net8" 1.650000000000000e+00
"inp" 1.450000000000000e+00
"out" 1.451666570913609e+00
"Xopamp.net1" 2.241619445656144e+00
"Xopamp.net3" 5.573317494694056e-01
"Xopamp.net2" 2.289071319556153e+00
"Xopamp.net8" 2.118887912153113e+00
"vcm:p" -1.705341906358391e-08
"vdd:p" -6.027502809647858e-05
"vip:p" -1.705341906358391e-08
"time" 5.389770026126571e-08
"Xopamp:1" 6.449492382260947e-05
"Xopamp:2" -6.408868078138175e-05
"Xopamp:3" -2.176512597684397e-08
"Xopamp:4" 2.680222172313771e-08
"Xopamp:5" 1.000000309631692e-05
"Xopamp:6" -1.042461320629487e-05
"dd" 3.300000000000000e+00
"net7" 8.721967445911961e-01
"net8" 1.650000000000000e+00
"inp" 1.450000000000000e+00
"out" 1.479945403170791e+00
"Xopamp.net1" 2.232860841182812e+00
"Xopamp.net3" 5.701074826679624e-01
"Xopamp.net2" 2.212803779496561e+00
"Xopamp.net8" 2.166305121132295e+00
"vcm:p" 2.175948780816957e-08
"vdd:p" -7.450239320503942e-05
"vip:p" 2.175948780816957e-08
"time" 6.520934146235177e-08
"Xopamp:1" 5.493018004045508e-05
"Xopamp:2" -6.380902847023027e-05
"Xopamp:3" -1.107866392344015e-08
"Xopamp:4" 2.133622827294022e-09
"Xopamp:5" 9.999936626596754e-06
"Xopamp:6" -1.091212529991043e-06
"dd" 3.300000000000000e+00
"net7" 8.720093406988075e-01
"net8" 1.650000000000000e+00
"inp" 1.450000000000000e+00
"out" 1.511947988105301e+00
"Xopamp.net1" 2.194009967905738e+00
"Xopamp.net3" 5.894304795932639e-01
"Xopamp.net2" 2.255700325747309e+00
"Xopamp.net8" 2.204919442366883e+00
"vcm:p" 1.111576641998261e-08
"vdd:p" -6.474529991408748e-05
"vip:p" 1.111576641998261e-08
"time" 8.137102980098275e-08
"Xopamp:1" 4.595833837497384e-05
"Xopamp:2" -6.308445756529198e-05
"Xopamp:3" 1.835103677624373e-08
"Xopamp:4" -1.701221172483924e-08
"Xopamp:5" 1.000006450608882e-05
"Xopamp:6" 7.098147850875310e-06
"dd" 3.300000000000000e+00
"net7" 8.710927611412043e-01
"net8" 1.650000000000000e+00
"inp" 1.450000000000000e+00
"out" 1.487782333715954e+00
"Xopamp.net1" 2.206065278776936e+00
"Xopamp.net3" 5.762636112688994e-01
"Xopamp.net2" 2.304547120388615e+00
"Xopamp.net8" 2.196205827954025e+00
"vcm:p" -1.833514361226042e-08
"vdd:p" -5.615974147109056e-05
"vip:p" -1.833514361226042e-08
"time" 9.667138929938973e-08
"Xopamp:1" 5.293216859926535e-05
"Xopamp:2" -6.333031229553972e-05
"Xopamp:3" 1.767152290347910e-09
"Xopamp:4" -3.860087352137991e-09
"Xopamp:5" 9.999908502100256e-06
"Xopamp:6" 4.277885400561201e-07
"dd" 3.300000000000000e+00
"net7" 8.713204275744082e-01
"net8" 1.650000000000000e+00
"inp" 1.450000000000000e+00
"out" 1.458984101646865e+00
"Xopamp.net1" 2.240033837920405e+00
"Xopamp.net3" 5.606536789734179e-01
"Xopamp.net2" 2.267347152949684e+00
"Xopamp.net8" 2.184943311341447e+00
"vcm:p" -1.782010614439234e-09
"vdd:p" -6.270658498460011e-05
"vip:p" -1.782010614439234e-09
"time" 1.166713892993897e-07
"Xopamp:1" 5.707489209736782e-05
"Xopamp:2" -6.373435475527634e-05
"Xopamp:3" -4.982704951772430e-09
"Xopamp:4" 1.217578000434287e-08
"Xopamp:5" 1.000009261866137e-05
"Xopamp:6" -3.388600901385830e-06
"dd" 3.300000000000000e+00
"net7" 8.718509506328685e-01
"net8" 1.650000000000000e+00
"inp" 1.450000000000000e+00
"out" 1.473693522735640e+00
"Xopamp.net1" 2.231790889280446e+00
"Xopamp.net3" 5.674234694689134e-01
"Xopamp.net2" 2.243112005285053e+00
"Xopamp.net8" 2.213155185304016e+00
"vcm:p" 5.043864128038444e-09
"vdd:p" -6.730325855307460e-05
"vip:p" 5.043864128038444e-09
"time" 1.365437919353730e-07
"Xopamp:1" 5.087034040943476e-05
"Xopamp:2" -6.340545954741186e-05
"Xopamp:3" 3.851317762825006e-11
"Xopamp:4" -1.030296791046284e-08
"Xopamp:5" 9.999906825552311e-06
"Xopamp:6" 2.586516968481800e-06
"dd" 3.300000000000000e+00
"net7" 8.714992741062647e-01
"net8" 1.650000000000000e+00
"inp" 1.450000000000000e+00
"out" 1.477418658588993e+00
"Xopamp.net1" 2.221879982567603e+00
"Xopamp.net3" 5.702957293342522e-01
"Xopamp.net2" 2.274061551244712e+00
"Xopamp.net8" 2.226175114951610e+00
"vcm:p" -1.029140377233697e-10
"vdd:p" -6.059136043184180e-05
"vip:p" -1.029140377233697e-10
"time" 1.565437919353730e-07
"Xopamp:1" 5.194551276330636e-05
"Xopamp:2" -6.334580120422541e-05
"Xopamp:3" 8.676419295189300e-09
"Xopamp:4" -3.066344303000278e-10
"Xopamp:5" 1.000009299500486e-05
"Xopamp:6" 1.351756340493259e-06
"dd" 3.300000000000000e+00
"net7" 8.713768142166409e-01
"net8" 1.650000000000000e+00
"inp" 1.450000000000000e+00
"out" 1.457867637493991e+00
"Xopamp.net1" 2.241534799151847e+00
"Xopamp.net3" 5.597977853403614e-01
"Xopamp.net2" 2.268357324211442e+00
"Xopamp.net8" 2.218383967980723e+00
"vcm:p" -8.624296692767355e-09
"vdd:p" -6.224093957345810e-05
"vip:p" -8.624296692767355e-09
"time" 1.765437919353730e-07
"Xopamp:1" 5.551863039435314e-05
"Xopamp:2" -6.359042152339680e-05
"Xopamp:3" -7.516270782139769e-09
"Xopamp:4" 1.725770301340922e-09
"Xopamp:5" 9.999911820500808e-06
"Xopamp:6" -1.864485634476739e-06
"dd" 3.300000000000000e+00
"net7" 8.716832535327578e-01
"net8" 1.650000000000000e+00
"inp" 1.450000000000000e+00
