HEADER
"PSFversion" "1.00"
"simulator" "spectre"
"version" "23.1.0.063"
"date" "10:03:34 AM, Thur Dec 19, 2024"
"design" ""
"analysis type" "ac"
"analysis name" "outac3"
"analysis description" "AC Analysis `outac3': freq = (100 mHz -> 100 GHz)"
"xVecSorted" "ascending"
"tolerance.relative" 0.00100000
"start" 0.100000
"stop" 1.00000e+11
"operating point producer" "outac3"
TYPE
"sweep" FLOAT DOUBLE PROP(
"key" "sweep"
)
"V" COMPLEX DOUBLE PROP(
"units" "V"
"key" "node"
"tolerance" 1.00000e-06
)
"I" COMPLEX DOUBLE PROP(
"units" "A"
"key" "branch"
"tolerance" 1.00000e-12
)
"MMF" COMPLEX DOUBLE PROP(
"units" "A*turn"
"key" "node"
"tolerance" 1.00000e-12
)
"Wb" COMPLEX DOUBLE PROP(
"units" "Wb"
"key" "node"
"tolerance" 1.00000e-09
)
"Temp" COMPLEX DOUBLE PROP(
"units" "C"
"key" "node"
"tolerance" 0.000100000
)
"Pwr" COMPLEX DOUBLE PROP(
"units" "W"
"key" "node"
"tolerance" 1.00000e-09
)
"U" COMPLEX DOUBLE PROP(
"units" ""
"key" "node"
"tolerance" 1.00000e-06
)
"V/Sec" COMPLEX DOUBLE PROP(
"units" "V/s"
"key" "node"
"tolerance" 0.000100000
)
"I/Sec" COMPLEX DOUBLE PROP(
"units" "A/s"
"key" "node"
"tolerance" 1.00000e-06
)
"1/Sec" COMPLEX DOUBLE PROP(
"units" "1/s"
"key" "node"
"tolerance" 0.000100000
)
"HOD" COMPLEX DOUBLE PROP(
"units" ""
"key" "node"
"tolerance" 0.0100000
)
"Q" COMPLEX DOUBLE PROP(
"units" "Coul"
"key" "node"
"tolerance" 1.00000e-15
)
SWEEP
"freq" "sweep" PROP(
"sweep_direction" 0
"units" "Hz"
"plot" 0
"grid" 3
)
TRACE
"Xopamp:1" "I"
"Xopamp:2" "I"
"Xopamp:3" "I"
"Xopamp:4" "I"
"Xopamp:5" "I"
"Xopamp:6" "I"
"Xopamp.M1:1" "I"
"Xopamp.M1:2" "I"
"Xopamp.M1:3" "I"
"Xopamp.M1:4" "I"
"Xopamp.M2:1" "I"
"Xopamp.M2:2" "I"
"Xopamp.M2:3" "I"
"Xopamp.M2:4" "I"
"Xopamp.M3:1" "I"
"Xopamp.M3:2" "I"
"Xopamp.M3:3" "I"
"Xopamp.M3:4" "I"
"Xopamp.M4:1" "I"
"Xopamp.M4:2" "I"
"Xopamp.M4:3" "I"
"Xopamp.M4:4" "I"
"Xopamp.M5:1" "I"
"Xopamp.M5:2" "I"
"Xopamp.M5:3" "I"
"Xopamp.M5:4" "I"
"Xopamp.M6:1" "I"
"Xopamp.M6:2" "I"
"Xopamp.M6:3" "I"
"Xopamp.M6:4" "I"
"Xopamp.M7:1" "I"
"Xopamp.M7:2" "I"
"Xopamp.M7:3" "I"
"Xopamp.M7:4" "I"
"Xopamp.M8:1" "I"
"Xopamp.M8:2" "I"
"Xopamp.M8:3" "I"
"Xopamp.M8:4" "I"
"net8" "V"
"net7" "V"
"inp" "V"
"inn" "V"
"out" "V"
"dd" "V"
"Xopamp.net1" "V"
"Xopamp.net3" "V"
"Xopamp.net2" "V"
"Xopamp.net8" "V"
"vdd:p" "I"
"vddac:p" "I"
"vip:p" "I"
VALUE
"freq" 1.000000000000000e-01
"Xopamp:1" (1.333722933966792e-10 3.119446190313769e-15)
"Xopamp:2" (-1.333722828459730e-10 -1.817640294558060e-15)
"Xopamp:3" (9.783001170440223e-23 -1.269674227395530e-15)
"Xopamp:4" (-1.097342847022660e-22 -1.249530366460182e-15)
"Xopamp:5" (-3.758511890693351e-35 2.181380763049876e-30)
"Xopamp:6" (-2.179986550545064e-21 1.217398877261739e-15)
"Xopamp.M1:1" (9.542743678592203e-11 3.517416975733474e-13)
"Xopamp.M1:2" (-1.097342847022660e-22 -1.249530366460182e-15)
"Xopamp.M1:3" (6.978952240058438e-11 -3.496918933674306e-13)
"Xopamp.M1:4" (-1.652169500358424e-10 -8.002737799645401e-16)
"Xopamp.M2:1" (3.437022888519436e-11 -3.486533550582519e-13)
"Xopamp.M2:2" (9.783001170440223e-23 -1.269674227395530e-15)
"Xopamp.M2:3" (7.228758877023036e-11 3.507307038213572e-13)
"Xopamp.M2:4" (-1.066578094367586e-10 -8.076745356484583e-16)
"Xopamp.M3:1" (-9.542741596924031e-11 -3.517346979136183e-13)
"Xopamp.M3:2" (7.640326957658921e-22 -2.072860089922974e-19)
"Xopamp.M3:3" (9.542744372481593e-11 3.517348561279163e-13)
"Xopamp.M3:4" (2.149128435401289e-18 4.907152897399365e-20)
"Xopamp.M4:1" (-3.437020112961875e-11 -3.512612587619237e-13)
"Xopamp.M4:2" (8.369673397896260e-22 -6.792373940328495e-18)
"Xopamp.M4:3" (3.437153339724830e-11 3.512712469212828e-13)
"Xopamp.M4:4" (-1.319330654121035e-15 -3.195785553059832e-18)
"Xopamp.M5:1" (1.297976609548369e-10 5.691377910344649e-16)
"Xopamp.M5:2" (3.391017063839083e-23 -8.033689761468593e-18)
"Xopamp.M5:3" (-1.297964030794976e-10 -5.563582469133908e-16)
"Xopamp.M5:4" (-1.257940668032575e-15 -4.745854758555556e-18)
"Xopamp.M6:1" (-3.574621777711353e-12 6.916289707076764e-13)
"Xopamp.M6:2" (-1.043675671446745e-21 8.254539437004802e-15)
"Xopamp.M6:3" (-3.747946397680835e-12 -7.057290697415271e-13)
"Xopamp.M6:4" (7.322579853821465e-12 5.845559596665731e-15)
"Xopamp.M7:1" (3.574621823451132e-12 1.248502502396000e-15)
"Xopamp.M7:2" (7.895916717670991e-23 -2.284853178911214e-19)
"Xopamp.M7:3" (-3.545734307580581e-12 -1.238134526488621e-15)
"Xopamp.M7:4" (-2.888751833966334e-14 -1.013949131813170e-17)
"Xopamp.M8:1" (-1.128592761998268e-22 8.262175079362033e-18)
"Xopamp.M8:2" (-1.006161531157164e-26 -1.374388899923560e-31)
"Xopamp.M8:3" (1.128671100655189e-22 -8.262175029758273e-18)
"Xopamp.M8:4" (2.227749593071568e-27 -4.960226326911201e-26)
"net8" (0.000000000000000e+00 0.000000000000000e+00)
"net7" (-6.775591292675689e-19 4.960269313012473e-14)
"inp" (0.000000000000000e+00 0.000000000000000e+00)
"inn" (2.556942661168297e-05 8.837936630160425e-09)
"out" (2.556942661168297e-05 8.837936630160425e-09)
"dd" (1.000000000000000e+00 0.000000000000000e+00)
"Xopamp.net1" (9.999987223426544e-01 -4.709299922579622e-09)
"Xopamp.net3" (1.046747483417485e-03 4.419676889528800e-09)
"Xopamp.net2" (1.000763021875476e+00 3.759815869106733e-09)
"Xopamp.net8" (1.000763021875472e+00 -6.049540503641139e-08)
"vdd:p" (-1.333721862133223e-10 -3.119446190313882e-15)
"vddac:p" (-1.333721862133223e-10 -3.119446190313882e-15)
"vip:p" (-9.783001170440223e-23 1.269674227395530e-15)
"freq" 1.258925411794167e-01
"Xopamp:1" (1.333722933966484e-10 3.927149927256625e-15)
"Xopamp:2" (-1.333722828883157e-10 -2.288273556504095e-15)
"Xopamp:3" (1.550501195866936e-22 -1.598425149570674e-15)
"Xopamp:4" (-1.739171208018024e-22 -1.573065531141099e-15)
"Xopamp:5" (-5.672468523981656e-35 2.542485389063798e-31)
"Xopamp:6" (3.331953974941377e-20 1.532614384174040e-15)
"Xopamp.M1:1" (9.542744372481593e-11 4.428165613861536e-13)
"Xopamp.M1:2" (-1.739171208018024e-22 -1.573065531141099e-15)
"Xopamp.M1:3" (6.978951128751212e-11 -4.402360108534444e-13)
"Xopamp.M1:4" (-1.652169500358416e-10 -1.007484997990559e-15)
"Xopamp.M2:1" (3.437021500740656e-11 -4.389285686440734e-13)
"Xopamp.M2:2" (1.550501195866936e-22 -1.598425149570674e-15)
"Xopamp.M2:3" (7.228759569557174e-11 4.415437957910917e-13)
"Xopamp.M2:4" (-1.066578094367512e-10 -1.016801997386242e-15)
"Xopamp.M3:1" (-9.542744372481593e-11 -4.428077493365310e-13)
"Xopamp.M3:2" (1.210910218127539e-21 -2.609576285251171e-19)
"Xopamp.M3:3" (9.542744372481593e-11 4.428079485165790e-13)
"Xopamp.M3:4" (2.149039758246891e-18 6.177739568134988e-20)
"Xopamp.M4:1" (-3.437020112961875e-11 -4.422117247574715e-13)
"Xopamp.M4:2" (1.326503838924162e-21 -8.551092164416906e-18)
"Xopamp.M4:3" (3.437153339724830e-11 4.422242991052423e-13)
"Xopamp.M4:4" (-1.319330721782026e-15 -4.023255642658770e-18)
"Xopamp.M5:1" (1.297976610090470e-10 7.165020286572413e-16)
"Xopamp.M5:2" (5.374399860653104e-23 -1.011381619202690e-17)
"Xopamp.M5:3" (-1.297964030902544e-10 -7.004135351880828e-16)
"Xopamp.M5:4" (-1.257940656429111e-15 -5.974677156728306e-18)
"Xopamp.M6:1" (-3.574621746371134e-12 8.707092867567722e-13)
"Xopamp.M6:2" (-1.654114466805373e-21 1.039184945990012e-14)
"Xopamp.M6:3" (-3.747946397680835e-12 -8.884602597387157e-13)
"Xopamp.M6:4" (7.322579853947034e-12 7.359123522398039e-15)
"Xopamp.M7:1" (3.574621855638384e-12 1.571771528219750e-15)
"Xopamp.M7:2" (1.251418465476424e-22 -2.876459754736834e-19)
"Xopamp.M7:3" (-3.545734339018385e-12 -1.558719018706297e-15)
"Xopamp.M7:4" (-2.888751856535169e-14 -1.276486328548488e-17)
"Xopamp.M8:1" (-1.788698985686125e-22 1.040146216750111e-17)
"Xopamp.M8:2" (-1.594658561768842e-26 -2.742266378334777e-31)
"Xopamp.M8:3" (1.788823144090256e-22 -1.040146210505609e-17)
"Xopamp.M8:4" (3.530745165721756e-27 -6.244552733216863e-26)
"net8" (0.000000000000000e+00 0.000000000000000e+00)
"net7" (-1.073858851546625e-18 6.244609089536768e-14)
"inp" (0.000000000000000e+00 0.000000000000000e+00)
"inn" (2.556942683911543e-05 1.112630301214740e-08)
"out" (2.556942683911543e-05 1.112630301214740e-08)
"dd" (1.000000000000000e+00 0.000000000000000e+00)
"Xopamp.net1" (9.999987223426334e-01 -5.928657343269892e-09)
"Xopamp.net3" (1.046747483504770e-03 5.564043548825743e-09)
"Xopamp.net2" (1.000763021875476e+00 4.733327741280962e-09)
"Xopamp.net8" (1.000763021875469e+00 -7.615920269710502e-08)
"vdd:p" (-1.333721862132745e-10 -3.927149927256691e-15)
"vddac:p" (-1.333721862132745e-10 -3.927149927256691e-15)
"vip:p" (-1.550501195866936e-22 1.598425149570674e-15)
"freq" 1.584893192461114e-01
"Xopamp:1" (1.333722933966038e-10 4.943988523083229e-15)
"Xopamp:2" (-1.333722828344609e-10 -2.880765729229381e-15)
"Xopamp:3" (2.457378790169713e-22 -2.012298039639586e-15)
"Xopamp:4" (-2.756400607767841e-22 -1.980372171573304e-15)
"Xopamp:5" (1.628835398845478e-35 2.601957564899973e-31)
"Xopamp:6" (1.685032818681656e-20 1.929447193456616e-15)
"Xopamp.M1:1" (9.542743678592203e-11 5.574730217343557e-13)
"Xopamp.M1:2" (-2.756400607767841e-22 -1.980372171573304e-15)
"Xopamp.M1:3" (6.978951546169048e-11 -5.542243011832557e-13)
"Xopamp.M1:4" (-1.652169500358596e-10 -1.268348465971903e-15)
"Xopamp.M2:1" (3.437022888519436e-11 -5.525783290136115e-13)
"Xopamp.M2:2" (2.457378790169713e-22 -2.012298039639586e-15)
"Xopamp.M2:3" (7.228758183133645e-11 5.558707049265263e-13)
"Xopamp.M2:4" (-1.066578094368032e-10 -1.280077873273950e-15)
"Xopamp.M3:1" (-9.542741596924031e-11 -5.574619280212160e-13)
"Xopamp.M3:2" (1.919163360848364e-21 -3.285261791814090e-19)
"Xopamp.M3:3" (9.542744372481593e-11 5.574621787740628e-13)
"Xopamp.M3:4" (2.148899088671246e-18 7.777313114295839e-20)
"Xopamp.M4:1" (-3.437022888519436e-11 -5.567115775326607e-13)
"Xopamp.M4:2" (2.102366903512071e-21 -1.076518721301048e-17)
"Xopamp.M4:3" (3.437153339724830e-11 5.567274076986251e-13)
"Xopamp.M4:4" (-1.319330829018035e-15 -5.064978768547124e-18)
"Xopamp.M5:1" (1.297976609548369e-10 9.020226107401802e-16)
"Xopamp.M5:2" (8.517849752485863e-23 -1.273254021223505e-17)
"Xopamp.M5:3" (-1.297964030685058e-10 -8.817683981842198e-16)
"Xopamp.M5:4" (-1.257940637662852e-15 -7.521672898618297e-18)
"Xopamp.M6:1" (-3.574621686231795e-12 1.096158047383277e-12)
"Xopamp.M6:2" (-2.621594758006158e-21 1.308256336061081e-14)
"Xopamp.M6:3" (-3.747946397680835e-12 -1.118505198354849e-12)
"Xopamp.M6:4" (7.322579854150353e-12 9.264587610881201e-15)
"Xopamp.M7:1" (3.574621823451132e-12 1.978743117392058e-15)
"Xopamp.M7:2" (1.983364606707296e-22 -3.621248249056136e-19)
"Xopamp.M7:3" (-3.545734307342000e-12 -1.962310982344573e-15)
"Xopamp.M7:4" (-2.888751825903758e-14 -1.607001076482788e-17)
"Xopamp.M8:1" (-2.834896845605937e-22 1.309466503714147e-17)
"Xopamp.M8:2" (-2.527363497816369e-26 -5.471540761971320e-31)
"Xopamp.M8:3" (2.835093623416412e-22 -1.309466495852775e-17)
"Xopamp.M8:4" (5.595853975185471e-27 -7.861421648492037e-26)
"net8" (0.000000000000000e+00 0.000000000000000e+00)
"net7" (-1.701951583378873e-18 7.861497066332011e-14)
"inp" (0.000000000000000e+00 0.000000000000000e+00)
"inn" (2.556942661183492e-05 1.400718560027934e-08)
"out" (2.556942661183492e-05 1.400718560027934e-08)
"dd" (1.000000000000000e+00 0.000000000000000e+00)
"Xopamp.net1" (9.999987223426752e-01 -7.463737385148568e-09)
"Xopamp.net3" (1.046747483330226e-03 7.004715815758466e-09)
"Xopamp.net2" (1.000763021875477e+00 5.958906575852527e-09)
"Xopamp.net8" (1.000763021875466e+00 -9.587875561738754e-08)
"vdd:p" (-1.333721862131988e-10 -4.943988523083270e-15)
"vddac:p" (-1.333721862131988e-10 -4.943988523083270e-15)
"vip:p" (-2.457378790169713e-22 2.012298039639586e-15)
"freq" 1.995262314968880e-01
"Xopamp:1" (1.333722933965297e-10 6.224112904731375e-15)
"Xopamp:2" (-1.333722828550956e-10 -3.626669182166029e-15)
"Xopamp:3" (3.894682915704317e-22 -2.533333138207698e-15)
"Xopamp:4" (-4.368600559869385e-22 -2.493140851600514e-15)
"Xopamp:5" (4.452186001683116e-35 -2.243960365691840e-32)
"Xopamp:6" (9.128994806057911e-20 2.429030105423832e-15)
"Xopamp.M1:1" (9.542743678592203e-11 7.018169535102946e-13)
"Xopamp.M1:2" (-4.368600559869385e-22 -2.493140851600514e-15)
"Xopamp.M1:3" (6.978950989160182e-11 -6.977270567558551e-13)
"Xopamp.M1:4" (-1.652169500358570e-10 -1.596756114822986e-15)
"Xopamp.M2:1" (3.437022888519436e-11 -6.956549003765778e-13)
"Xopamp.M2:2" (3.894682915704317e-22 -2.533333138207698e-15)
"Xopamp.M2:3" (7.228758531433593e-11 6.997997560785470e-13)
"Xopamp.M2:4" (-1.066578094368206e-10 -1.611522563739664e-15)
"Xopamp.M3:1" (-9.542741596924031e-11 -7.018029873524038e-13)
"Xopamp.M3:2" (3.041668946085606e-21 -4.135899405511318e-19)
"Xopamp.M3:3" (9.542744372481593e-11 7.018033030319213e-13)
"Xopamp.M3:4" (2.148676176016963e-18 9.791056820519308e-20)
"Xopamp.M4:1" (-3.437020112961875e-11 -7.008583520549179e-13)
"Xopamp.M4:2" (3.332026993701721e-21 -1.355256772947286e-17)
"Xopamp.M4:3" (3.437153339724830e-11 7.008782810531739e-13)
"Xopamp.M4:4" (-1.319330998975580e-15 -6.376430484507885e-18)
"Xopamp.M5:1" (1.297976609548369e-10 1.135579187098195e-15)
"Xopamp.M5:2" (1.349988208663253e-22 -1.602931843054275e-17)
"Xopamp.M5:3" (-1.297964030737523e-10 -1.110080643754336e-15)
"Xopamp.M5:4" (-1.257940608305247e-15 -9.469225151668095e-18)
"Xopamp.M6:1" (-3.574621558329819e-12 1.379981221195031e-12)
"Xopamp.M6:2" (-4.154947685329704e-21 1.646997146607894e-14)
"Xopamp.M6:3" (-3.747946397680835e-12 -1.408114617433578e-12)
"Xopamp.M6:4" (7.322579854469118e-12 1.166342477313034e-14)
"Xopamp.M7:1" (3.574621840391791e-12 2.491089995050311e-15)
"Xopamp.M7:2" (3.143421063646792e-22 -4.558881463454175e-19)
"Xopamp.M7:3" (-3.545734322875210e-12 -2.470403161760162e-15)
"Xopamp.M7:4" (-2.888751830912874e-14 -2.023094492297369e-17)
"Xopamp.M8:1" (-4.493008712189278e-22 1.648520657688924e-17)
"Xopamp.M8:2" (-4.005601203219821e-26 -1.091715908780712e-30)
"Xopamp.M8:3" (4.493320584001763e-22 -1.648520647792046e-17)
"Xopamp.M8:4" (8.868830872729970e-27 -9.896934570037389e-26)
"net8" (0.000000000000000e+00 0.000000000000000e+00)
"net7" (-2.697411478551158e-18 9.897038433171384e-14)
"inp" (0.000000000000000e+00 0.000000000000000e+00)
"inn" (2.556942672566943e-05 1.763400190163752e-08)
"out" (2.556942672566943e-05 1.763400190163752e-08)
"dd" (1.000000000000000e+00 0.000000000000000e+00)
"Xopamp.net1" (9.999987223427212e-01 -9.396288661913266e-09)
"Xopamp.net3" (1.046747483373882e-03 8.818414742536027e-09)
"Xopamp.net2" (1.000763021875477e+00 7.501818914850976e-09)
"Xopamp.net8" (1.000763021875460e+00 -1.207042018979137e-07)
"vdd:p" (-1.333721862130789e-10 -6.224112904731284e-15)
"vddac:p" (-1.333721862130789e-10 -6.224112904731284e-15)
"vip:p" (-3.894682915704317e-22 2.533333138207698e-15)
"freq" 2.511886431509581e-01
"Xopamp:1" (1.333722933964137e-10 7.835694325008705e-15)
"Xopamp:2" (-1.333722828648560e-10 -4.565705993657094e-15)
"Xopamp:3" (6.172656440139729e-22 -3.189277464234559e-15)
"Xopamp:4" (-6.923765287732461e-22 -3.138678373266581e-15)
"Xopamp:5" (-1.810063394772102e-34 8.107836622229586e-31)
"Xopamp:6" (6.864714973822518e-20 3.057967723296626e-15)
"Xopamp.M1:1" (9.542743678592203e-11 8.835351974128890e-13)
"Xopamp.M1:2" (-6.923765287732461e-22 -3.138678373266581e-15)
"Xopamp.M1:3" (6.978951681694320e-11 -8.783863222052404e-13)
"Xopamp.M1:4" (-1.652169500358018e-10 -2.010196849386680e-15)
"Xopamp.M2:1" (3.437022888519436e-11 -8.757776319600810e-13)
"Xopamp.M2:2" (6.172656440139729e-22 -3.189277464234559e-15)
"Xopamp.M2:3" (7.228759223967731e-11 8.809956961315129e-13)
"Xopamp.M2:4" (-1.066578094368442e-10 -2.028786707170420e-15)
"Xopamp.M3:1" (-9.542741596924031e-11 -8.835176150621731e-13)
"Xopamp.M3:2" (4.820720407522224e-21 -5.206788947342160e-19)
"Xopamp.M3:3" (9.542744372481593e-11 8.835180124788841e-13)
"Xopamp.M3:4" (2.148323041587082e-18 1.232621040812571e-19)
"Xopamp.M4:1" (-3.437020112961875e-11 -8.823283896807032e-13)
"Xopamp.M4:2" (5.280906900626179e-21 -1.706167191879058e-17)
"Xopamp.M4:3" (3.437153339724830e-11 8.823534788032737e-13)
"Xopamp.M4:4" (-1.319331268338990e-15 -8.027450372026724e-18)
"Xopamp.M5:1" (1.297976609548369e-10 1.429609495850564e-15)
"Xopamp.M5:2" (2.139587121902560e-22 -2.017971630763482e-17)
"Xopamp.M5:3" (-1.297964030843136e-10 -1.397508731622399e-15)
"Xopamp.M5:4" (-1.257940561798348e-15 -1.192104817442902e-17)
"Xopamp.M6:1" (-3.574621466003228e-12 1.737293427159577e-12)
"Xopamp.M6:2" (-6.585148301505670e-21 2.073446561017195e-14)
"Xopamp.M6:3" (-3.747946397680835e-12 -1.772711274604324e-12)
"Xopamp.M6:4" (7.322579854975645e-12 1.468338183544337e-14)
"Xopamp.M7:1" (3.574621837003659e-12 3.136096496978251e-15)
"Xopamp.M7:2" (4.981986644801376e-22 -5.739291723764814e-19)
"Xopamp.M7:3" (-3.545734322507766e-12 -3.110053317712166e-15)
"Xopamp.M7:4" (-2.888751818495460e-14 -2.546925066808663e-17)
"Xopamp.M8:1" (-7.120938921697825e-22 2.075364548001429e-17)
"Xopamp.M8:2" (-6.348450079214492e-26 -2.178259611466031e-30)
"Xopamp.M8:3" (7.121433205207878e-22 -2.075364535541852e-17)
"Xopamp.M8:4" (1.405614967642386e-26 -1.245948463695139e-25)
"net8" (0.000000000000000e+00 0.000000000000000e+00)
"net7" (-4.275109089669054e-18 1.245963318603835e-13)
"inp" (0.000000000000000e+00 0.000000000000000e+00)
"inn" (2.556942672590347e-05 2.219989310554817e-08)
"out" (2.556942672590347e-05 2.219989310554817e-08)
"dd" (1.000000000000000e+00 0.000000000000000e+00)
"Xopamp.net1" (9.999987223427003e-01 -1.182922657585983e-08)
"Xopamp.net3" (1.046747483461188e-03 1.110172641158292e-08)
"Xopamp.net2" (1.000763021875478e+00 9.444230466575378e-09)
"Xopamp.net8" (1.000763021875450e+00 -1.519575870796244e-07)
"vdd:p" (-1.333721862128887e-10 -7.835694325008560e-15)
"vddac:p" (-1.333721862128887e-10 -7.835694325008560e-15)
"vip:p" (-6.172656440139729e-22 3.189277464234559e-15)
"freq" 3.162277660168380e-01
"Xopamp:1" (1.333722933962294e-10 9.864554207898904e-15)
"Xopamp:2" (-1.333722828682436e-10 -5.747883298064830e-15)
"Xopamp:3" (9.783001171887207e-22 -4.015062444981542e-15)
"Xopamp:4" (-1.097342846892536e-21 -3.951361963539421e-15)
"Xopamp:5" (-1.055318879727421e-34 6.038414945267205e-30)
"Xopamp:6" (1.433715592081403e-19 3.849753272461491e-15)
"Xopamp.M1:1" (9.542745066370983e-11 1.112304911989161e-12)
"Xopamp.M1:2" (-1.097342846892536e-21 -3.951361963539421e-15)
"Xopamp.M1:3" (6.978950085206621e-11 -1.105822862205497e-12)
"Xopamp.M1:4" (-1.652169500357785e-10 -2.530687896403676e-15)
"Xopamp.M2:1" (3.437022888519436e-11 -1.102538716016100e-12)
"Xopamp.M2:2" (9.783001171887207e-22 -4.015062444981542e-15)
"Xopamp.M2:3" (7.228758531433593e-11 1.109107869601890e-12)
"Xopamp.M2:4" (-1.066578094369277e-10 -2.554091140768202e-15)
"Xopamp.M3:1" (-9.542741596924031e-11 -1.112282777120801e-12)
"Xopamp.M3:2" (7.640326954931722e-21 -6.554959979685227e-19)
"Xopamp.M3:3" (9.542744372481593e-11 1.112283277438890e-12)
"Xopamp.M3:4" (2.147763653023804e-18 1.551778161557955e-19)
"Xopamp.M4:1" (-3.437022888519436e-11 -1.110785631068178e-12)
"Xopamp.M4:2" (8.369673395024069e-21 -2.147937245774331e-17)
"Xopamp.M4:3" (3.437153339724830e-11 1.110817216401889e-12)
"Xopamp.M4:4" (-1.319331695251832e-15 -1.010596124701517e-17)
"Xopamp.M5:1" (1.297976610090470e-10 1.799771723540142e-15)
"Xopamp.M5:2" (3.391017064365977e-22 -2.540475766036313e-17)
"Xopamp.M5:3" (-1.297964030730775e-10 -1.759359255539402e-15)
"Xopamp.M5:4" (-1.257940487818759e-15 -1.500771048076246e-17)
"Xopamp.M6:1" (-3.574621231375102e-12 2.187122843193020e-12)
"Xopamp.M6:2" (-1.043675671444499e-20 2.610314565661588e-14)
"Xopamp.M6:3" (-3.747946397680835e-12 -2.231711271373164e-12)
"Xopamp.M6:4" (7.322579855777605e-12 1.848528252371422e-14)
"Xopamp.M7:1" (3.574621853944318e-12 3.948111571908926e-15)
"Xopamp.M7:2" (7.895916717811937e-22 -7.225340229002432e-19)
"Xopamp.M7:3" (-3.545734337690457e-12 -3.915325153475671e-15)
"Xopamp.M7:4" (-2.888751811659159e-14 -3.206388688572757e-17)
"Xopamp.M8:1" (-1.128592762064760e-21 2.612729168327375e-17)
"Xopamp.M8:2" (-1.006161531365435e-25 -4.346199314868771e-30)
"Xopamp.M8:3" (1.128671100721968e-21 -2.612729152641070e-17)
"Xopamp.M8:4" (2.227749593532603e-26 -1.568552632598640e-25)
"net8" (0.000000000000000e+00 0.000000000000000e+00)
