HEADER
"PSFversion" "1.00"
"simulator" "spectre"
"version" "23.1.0.063"
"date" "10:03:36 AM, Thur Dec 19, 2024"
"design" ""
"analysis type" "dc"
"analysis name" "outdc2"
"analysis description" "DC Analysis `outdc2': v_in = (0 -> 3.3)"
"xVecSorted" "unsorted"
"tolerance.relative" 0.00100000
"reltol" 0.00100000
"abstol(V)" 1.00000e-06
"abstol(I)" 1.00000e-12
"temp" 27.0000
"tnom" 27.0000
"tempeffects" "all"
"gmindc" 1.00000e-12
"rabsshort" 0.00100000
TYPE
"sweep" FLOAT DOUBLE PROP(
"key" "sweep"
)
"LogicV" FLOAT DOUBLE PROP(
"key" "node"
)
"V" FLOAT DOUBLE PROP(
"units" "V"
"key" "node"
"tolerance" 1.00000e-06
)
"I" FLOAT DOUBLE PROP(
"units" "A"
"key" "branch"
"tolerance" 1.00000e-12
)
"MMF" FLOAT DOUBLE PROP(
"units" "A*turn"
"key" "node"
"tolerance" 1.00000e-12
)
"Wb" FLOAT DOUBLE PROP(
"units" "Wb"
"key" "node"
"tolerance" 1.00000e-09
)
"Temp" FLOAT DOUBLE PROP(
"units" "C"
"key" "node"
"tolerance" 0.000100000
)
"Pwr" FLOAT DOUBLE PROP(
"units" "W"
"key" "node"
"tolerance" 1.00000e-09
)
"U" FLOAT DOUBLE PROP(
"units" ""
"key" "node"
"tolerance" 1.00000e-06
)
"V/Sec" FLOAT DOUBLE PROP(
"units" "V/s"
"key" "node"
"tolerance" 0.000100000
)
"I/Sec" FLOAT DOUBLE PROP(
"units" "A/s"
"key" "node"
"tolerance" 1.00000e-06
)
"1/Sec" FLOAT DOUBLE PROP(
"units" "1/s"
"key" "node"
"tolerance" 0.000100000
)
"HOD" FLOAT DOUBLE PROP(
"units" ""
"key" "node"
"tolerance" 0.0100000
)
"Q" FLOAT DOUBLE PROP(
"units" "Coul"
"key" "node"
"tolerance" 1.00000e-15
)
SWEEP
"v_in" "sweep" PROP(
"sweep_direction" 0
"plot" 0
"grid" 1
)
TRACE
"Xopamp:1" "I"
"Xopamp:2" "I"
"Xopamp:3" "I"
"Xopamp:4" "I"
"Xopamp:5" "I"
"Xopamp:6" "I"
"Xopamp.M1:1" "I"
"Xopamp.M1:2" "I"
"Xopamp.M1:3" "I"
"Xopamp.M1:4" "I"
"Xopamp.M2:1" "I"
"Xopamp.M2:2" "I"
"Xopamp.M2:3" "I"
"Xopamp.M2:4" "I"
"Xopamp.M3:1" "I"
"Xopamp.M3:2" "I"
"Xopamp.M3:3" "I"
"Xopamp.M3:4" "I"
"Xopamp.M4:1" "I"
"Xopamp.M4:2" "I"
"Xopamp.M4:3" "I"
"Xopamp.M4:4" "I"
"Xopamp.M5:1" "I"
"Xopamp.M5:2" "I"
"Xopamp.M5:3" "I"
"Xopamp.M5:4" "I"
"Xopamp.M6:1" "I"
"Xopamp.M6:2" "I"
"Xopamp.M6:3" "I"
"Xopamp.M6:4" "I"
"Xopamp.M7:1" "I"
"Xopamp.M7:2" "I"
"Xopamp.M7:3" "I"
"Xopamp.M7:4" "I"
"Xopamp.M8:1" "I"
"Xopamp.M8:2" "I"
"Xopamp.M8:3" "I"
"Xopamp.M8:4" "I"
"dd" "V"
"net7" "V"
"inp" "V"
"in" "V"
"inn" "V"
"out" "V"
"Xopamp.net1" "V"
"Xopamp.net3" "V"
"Xopamp.net2" "V"
"Xopamp.net8" "V"
"vdd:p" "I"
"vin:p" "I"
"vip:p" "I"
VALUE
"v_in" 0.000000000000000e+00
"Xopamp:1" 1.586551444524624e-05
"Xopamp:2" -2.583555903996276e-05
"Xopamp:3" 0.000000000000000e+00
"Xopamp:4" 0.000000000000000e+00
"Xopamp:5" 9.999999999999997e-06
"Xopamp:6" -2.995511674308671e-08
"Xopamp.M1:1" 4.711231921135401e-09
"Xopamp.M1:2" 0.000000000000000e+00
"Xopamp.M1:3" -4.658000165395734e-09
"Xopamp.M1:4" -5.323175573966721e-11
"Xopamp.M2:1" 5.004299918521913e-09
"Xopamp.M2:2" 0.000000000000000e+00
"Xopamp.M2:3" -5.004299915772370e-09
"Xopamp.M2:4" -2.749543342575175e-18
"Xopamp.M3:1" -4.711372323022560e-09
"Xopamp.M3:2" 0.000000000000000e+00
"Xopamp.M3:3" 4.710884763381807e-09
"Xopamp.M3:4" 4.875596407529125e-13
"Xopamp.M4:1" -5.004448043340941e-09
"Xopamp.M4:2" 8.271806125530277e-25
"Xopamp.M4:3" 4.974987674374390e-09
"Xopamp.M4:4" 2.946036896654993e-11
"Xopamp.M5:1" 9.715531825968370e-09
"Xopamp.M5:2" 0.000000000000000e+00
"Xopamp.M5:3" -9.715531783938383e-09
"Xopamp.M5:4" -4.202998632675754e-17
"Xopamp.M6:1" -1.585579862487988e-05
"Xopamp.M6:2" 0.000000000000000e+00
"Xopamp.M6:3" 1.585579861805298e-05
"Xopamp.M6:4" 6.826895794210319e-15
"Xopamp.M7:1" 1.582584350813679e-05
"Xopamp.M7:2" 0.000000000000000e+00
"Xopamp.M7:3" -1.542380589631244e-05
"Xopamp.M7:4" -4.020376118243503e-07
"Xopamp.M8:1" 9.999999999999996e-06
"Xopamp.M8:2" 1.694065894508601e-21
"Xopamp.M8:3" -9.999999430969699e-06
"Xopamp.M8:4" -5.690302969380259e-13
"dd" 3.300000000000000e+00
"net7" 5.690195099604625e-01
"inp" 1.650000000000000e+00
"in" 0.000000000000000e+00
"inn" 2.995511671412904e-01
"out" 3.295062838554195e+00
"Xopamp.net1" 2.929531375492036e+00
"Xopamp.net3" 4.201227465048199e-05
"Xopamp.net2" 4.476158894740541e-05
"Xopamp.net8" 4.476158894740541e-05
"vdd:p" -2.586551415667688e-05
"vin:p" 2.995511671412904e-08
"vip:p" 0.000000000000000e+00
"v_in" 1.000000000000000e-02
"Xopamp:1" 1.586821473276861e-05
"Xopamp:2" -2.583835038841787e-05
"Xopamp:3" 0.000000000000000e+00
"Xopamp:4" 0.000000000000000e+00
"Xopamp:5" 9.999999999999997e-06
"Xopamp:6" -2.986433885541809e-08
"Xopamp.M1:1" 6.068896918078080e-09
"Xopamp.M1:2" 0.000000000000000e+00
"Xopamp.M1:3" -6.002897822386195e-09
"Xopamp.M1:4" -6.599909569188433e-11
"Xopamp.M2:1" 6.437968941423405e-09
"Xopamp.M2:2" 0.000000000000000e+00
"Xopamp.M2:3" -6.437968937886120e-09
"Xopamp.M2:4" -3.537285806155695e-18
"Xopamp.M3:1" -6.068897974855546e-09
"Xopamp.M3:2" -8.271806125530277e-25
"Xopamp.M3:3" 6.068397842804976e-09
"Xopamp.M3:4" 5.001320505705184e-13
"Xopamp.M4:1" -6.437969784964464e-09
"Xopamp.M4:2" 0.000000000000000e+00
"Xopamp.M4:3" 6.405849039626174e-09
"Xopamp.M4:4" 3.212074533828909e-11
"Xopamp.M5:1" 1.250686226450020e-08
"Xopamp.M5:2" 0.000000000000000e+00
"Xopamp.M5:3" -1.250686221039008e-08
"Xopamp.M5:4" -5.411011266164382e-17
"Xopamp.M6:1" -1.585570786500879e-05
"Xopamp.M6:2" 0.000000000000000e+00
"Xopamp.M6:3" 1.585570785818192e-05
"Xopamp.M6:4" 6.826873458418502e-15
"Xopamp.M7:1" 1.582584352615337e-05
"Xopamp.M7:2" 0.000000000000000e+00
"Xopamp.M7:3" -1.542380589792509e-05
"Xopamp.M7:4" -4.020376282282900e-07
"Xopamp.M8:1" 9.999999999999996e-06
"Xopamp.M8:2" 1.694065894508601e-21
"Xopamp.M8:3" -9.999999430969699e-06
"Xopamp.M8:4" -5.690302969380259e-13
"dd" 3.300000000000000e+00
"net7" 5.690195099604625e-01
"inp" 1.650000000000000e+00
"in" 1.000000000000000e-02
"inn" 3.086420776994531e-01
"out" 3.295062854693984e+00
"Xopamp.net1" 2.920712337545240e+00
"Xopamp.net3" 5.408731577385448e-05
"Xopamp.net2" 5.762430691749416e-05
"Xopamp.net8" 5.762430691749416e-05
"vdd:p" -2.586821459949956e-05
"vin:p" 2.986420776994531e-08
"vip:p" 0.000000000000000e+00
"v_in" 2.000000000000000e-02
"Xopamp:1" 1.587170969031836e-05
"Xopamp:2" -2.584193621515612e-05
"Xopamp:3" 0.000000000000000e+00
"Xopamp:4" 1.654361225106055e-24
"Xopamp:5" 9.999999999999997e-06
"Xopamp:6" -2.977346660658508e-08
"Xopamp.M1:1" 7.813272985564090e-09
"Xopamp.M1:2" 1.654361225106055e-24
"Xopamp.M1:3" -7.731338403052871e-09
"Xopamp.M1:4" -8.193458251122095e-11
"Xopamp.M2:1" 8.279407726527213e-09
"Xopamp.M2:2" 0.000000000000000e+00
"Xopamp.M2:3" -8.279407721978110e-09
"Xopamp.M2:4" -4.549102557681076e-18
"Xopamp.M3:1" -7.813274496548273e-09
"Xopamp.M3:2" 0.000000000000000e+00
"Xopamp.M3:3" 7.812761673998233e-09
"Xopamp.M3:4" 5.128225500406971e-13
"Xopamp.M4:1" -8.279408874338454e-09
"Xopamp.M4:2" 0.000000000000000e+00
"Xopamp.M4:3" 8.243837967211736e-09
"Xopamp.M4:4" 3.557090712671869e-11
"Xopamp.M5:1" 1.609267481523985e-08
"Xopamp.M5:2" 0.000000000000000e+00
"Xopamp.M5:3" -1.609267474560825e-08
"Xopamp.M5:4" -6.963159873688232e-17
"Xopamp.M6:1" -1.585561700694747e-05
"Xopamp.M6:2" 0.000000000000000e+00
"Xopamp.M6:3" 1.585561700012062e-05
"Xopamp.M6:4" 6.826855869661681e-15
"Xopamp.M7:1" 1.582584354034089e-05
"Xopamp.M7:2" 0.000000000000000e+00
"Xopamp.M7:3" -1.542380589919499e-05
"Xopamp.M7:4" -4.020376411458938e-07
"Xopamp.M8:1" 9.999999999999996e-06
"Xopamp.M8:2" 1.694065894508601e-21
"Xopamp.M8:3" -9.999999430969699e-06
"Xopamp.M8:4" -5.690302969380259e-13
"dd" 3.300000000000000e+00
"net7" 5.690195099604625e-01
"inp" 1.650000000000000e+00
"in" 2.000000000000000e-02
"inn" 3.177329879457798e-01
"out" 3.295062867403577e+00
"Xopamp.net1" 2.911848492583055e+00
"Xopamp.net3" 6.960227152463619e-05
"Xopamp.net2" 7.415099514112940e-05
"Xopamp.net8" 7.415099514112940e-05
"vdd:p" -2.587170951937686e-05
"vin:p" 2.977329879457797e-08
"vip:p" 0.000000000000000e+00
"v_in" 3.000000000000000e-02
"Xopamp:1" 1.587622020237096e-05
"Xopamp:2" -2.584653758468709e-05
"Xopamp:3" 0.000000000000000e+00
"Xopamp:4" 1.654361225106055e-24
"Xopamp:5" 9.999999999999994e-06
"Xopamp:6" -2.968260426272157e-08
"Xopamp.M1:1" 1.005208014239756e-08
"Xopamp.M1:2" 1.654361225106055e-24
"Xopamp.M1:3" -9.950287674648175e-09
"Xopamp.M1:4" -1.017924677493872e-10
"Xopamp.M2:1" 1.064196460259679e-08
"Xopamp.M2:2" 0.000000000000000e+00
"Xopamp.M2:3" -1.064196459674950e-08
"Xopamp.M2:4" -5.847293867495547e-18
"Xopamp.M3:1" -1.005208233652509e-08
"Xopamp.M3:2" 0.000000000000000e+00
"Xopamp.M3:3" 1.005155670048381e-08
"Xopamp.M3:4" 5.256360412749049e-13
"Xopamp.M4:1" -1.064196618540996e-08
"Xopamp.M4:2" 0.000000000000000e+00
"Xopamp.M4:3" 1.060193849749487e-08
"Xopamp.M4:4" 4.002768791509569e-11
"Xopamp.M5:1" 2.069403510078559e-08
"Xopamp.M5:2" 0.000000000000000e+00
"Xopamp.M5:3" -2.069403501123159e-08
"Xopamp.M5:4" -8.955400356364756e-17
"Xopamp.M6:1" -1.585552615384903e-05
"Xopamp.M6:2" 0.000000000000000e+00
"Xopamp.M6:3" 1.585552614702218e-05
"Xopamp.M6:4" 6.826844407795265e-15
"Xopamp.M7:1" 1.582584354958630e-05
"Xopamp.M7:2" -3.388131789017201e-21
"Xopamp.M7:3" -1.542380590002254e-05
"Xopamp.M7:4" -4.020376495637634e-07
"Xopamp.M8:1" 9.999999999999996e-06
"Xopamp.M8:2" 1.694065894508601e-21
"Xopamp.M8:3" -9.999999430969699e-06
"Xopamp.M8:4" -5.690302969380259e-13
"dd" 3.300000000000000e+00
"net7" 5.690195099604625e-01
"inp" 1.650000000000000e+00
"in" 3.000000000000000e-02
"inn" 3.268238977896267e-01
"out" 3.295062875685894e+00
"Xopamp.net1" 2.902937488198263e+00
"Xopamp.net3" 8.951630028602239e-05
"Xopamp.net2" 9.536310708518148e-05
"Xopamp.net8" 9.536310708518148e-05
"vdd:p" -2.587621998332774e-05
"vin:p" 2.968238977896267e-08
"vip:p" 0.000000000000000e+00
"v_in" 4.000000000000000e-02
"Xopamp:1" 1.588202641108917e-05
"Xopamp:2" -2.585243463577589e-05
"Xopamp:3" 0.000000000000000e+00
"Xopamp:4" 0.000000000000000e+00
"Xopamp:5" 9.999999999999997e-06
"Xopamp:6" -2.959175434508212e-08
"Xopamp.M1:1" 1.292187242010775e-08
"Xopamp.M1:2" 0.000000000000000e+00
"Xopamp.M1:3" -1.279537932620713e-08
"Xopamp.M1:4" -1.264930939006170e-10
"Xopamp.M2:1" 1.366922655165002e-08
"Xopamp.M2:2" 0.000000000000000e+00
"Xopamp.M2:3" -1.366922654413923e-08
"Xopamp.M2:4" -7.510789344978393e-18
"Xopamp.M3:1" -1.292187555626392e-08
"Xopamp.M3:2" 1.654361225106055e-24
"Xopamp.M3:3" 1.292133697721194e-08
"Xopamp.M3:4" 5.385790519736463e-13
"Xopamp.M4:1" -1.366922866502163e-08
"Xopamp.M4:2" -1.654361225106055e-24
"Xopamp.M4:3" 1.362346316318319e-08
"Xopamp.M4:4" 4.576550183844167e-11
"Xopamp.M5:1" 2.659108325308112e-08
"Xopamp.M5:2" 0.000000000000000e+00
"Xopamp.M5:3" -2.659108313798652e-08
"Xopamp.M5:4" -1.150946023557505e-16
"Xopamp.M6:1" -1.585543530686789e-05
"Xopamp.M6:2" 0.000000000000000e+00
"Xopamp.M6:3" 1.585543530004105e-05
"Xopamp.M6:4" 6.826840767305000e-15
"Xopamp.M7:1" 1.582584355252281e-05
"Xopamp.M7:2" 0.000000000000000e+00
"Xopamp.M7:3" -1.542380590028538e-05
"Xopamp.M7:4" -4.020376522374264e-07
"Xopamp.M8:1" 9.999999999999996e-06
"Xopamp.M8:2" 1.694065894508601e-21
"Xopamp.M8:3" -9.999999430969699e-06
"Xopamp.M8:4" -5.690302969380259e-13
"dd" 3.300000000000000e+00
"net7" 5.690195099604625e-01
"inp" 1.650000000000000e+00
"in" 4.000000000000000e-02
"inn" 3.359148071196821e-01
"out" 3.295062878316504e+00
"Xopamp.net1" 2.893975912900795e+00
"Xopamp.net3" 1.150461705408273e-04
"Xopamp.net2" 1.225563342719973e-04
"Xopamp.net8" 1.225563342719973e-04
"vdd:p" -2.588202613090633e-05
"vin:p" 2.959148071196821e-08
"vip:p" 0.000000000000000e+00
"v_in" 5.000000000000000e-02
"Xopamp:1" 1.588948214242894e-05
"Xopamp:2" -2.585998118990862e-05
"Xopamp:3" 0.000000000000000e+00
"Xopamp:4" 3.308722450212111e-24
"Xopamp:5" 9.999999999999997e-06
"Xopamp:6" -2.950091994113909e-08
"Xopamp.M1:1" 1.659519361672524e-08
"Xopamp.M1:2" 3.308722450212111e-24
"Xopamp.M1:3" -1.643803950573627e-08
"Xopamp.M1:4" -1.571541109889699e-10
"Xopamp.M2:1" 1.754247439065659e-08
"Xopamp.M2:2" 0.000000000000000e+00
"Xopamp.M2:3" -1.754247438101733e-08
"Xopamp.M2:4" -9.639253702214336e-18
"Xopamp.M3:1" -1.659519799728262e-08
"Xopamp.M3:2" -3.308722450212111e-24
"Xopamp.M3:3" 1.659464633927465e-08
"Xopamp.M3:4" 5.516580079662594e-13
"Xopamp.M4:1" -1.754247706876077e-08
"Xopamp.M4:2" 0.000000000000000e+00
"Xopamp.M4:3" 1.748934728169454e-08
"Xopamp.M4:4" 5.312978706623160e-11
"Xopamp.M5:1" 3.413764248686587e-08
"Xopamp.M5:2" 0.000000000000000e+00
"Xopamp.M5:3" -3.413764233907292e-08
"Xopamp.M5:4" -1.477929582141458e-16
"Xopamp.M6:1" -1.585534446736290e-05
"Xopamp.M6:2" 0.000000000000000e+00
"Xopamp.M6:3" 1.585534446053605e-05
"Xopamp.M6:4" 6.826847091250959e-15
"Xopamp.M7:1" 1.582584354742176e-05
"Xopamp.M7:2" 0.000000000000000e+00
"Xopamp.M7:3" -1.542380589982879e-05
"Xopamp.M7:4" -4.020376475929694e-07
"Xopamp.M8:1" 9.999999999999996e-06
"Xopamp.M8:2" 1.694065894508601e-21
"Xopamp.M8:3" -9.999999430969699e-06
"Xopamp.M8:4" -5.690302969380259e-13
"dd" 3.300000000000000e+00
"net7" 5.690195099604625e-01
"inp" 1.650000000000000e+00
"in" 5.000000000000000e-02
"inn" 3.450057157951669e-01
"out" 3.295062873746836e+00
"Xopamp.net1" 2.884960510277852e+00
"Xopamp.net3" 1.477308069326762e-04
"Xopamp.net2" 1.573692577635703e-04
"Xopamp.net8" 1.573692577635703e-04
"vdd:p" -2.588948178484759e-05
"vin:p" 2.950057157951669e-08
"vip:p" 0.000000000000000e+00
"v_in" 6.000000000000000e-02
"Xopamp:1" 1.589903256740069e-05
"Xopamp:2" -2.586962241232169e-05
"Xopamp:3" 0.000000000000000e+00
"Xopamp:4" 0.000000000000000e+00
"Xopamp:5" 9.999999999999997e-06
"Xopamp:6" -2.941010478650429e-08
"Xopamp.M1:1" 2.128923936041056e-08
"Xopamp.M1:2" 0.000000000000000e+00
"Xopamp.M1:3" -2.109411442636708e-08
"Xopamp.M1:4" -1.951249340434744e-10
"Xopamp.M2:1" 2.248968210662575e-08
"Xopamp.M2:2" 0.000000000000000e+00
"Xopamp.M2:3" -2.248968209426771e-08
"Xopamp.M2:4" -1.235804677538256e-17
"Xopamp.M3:1" -2.128924528895955e-08
"Xopamp.M3:2" 0.000000000000000e+00
"Xopamp.M3:3" 2.128868041006795e-08
"Xopamp.M3:4" 5.648788915951691e-13
"Xopamp.M4:1" -2.248968522078017e-08
"Xopamp.M4:2" -3.308722450212111e-24
"Xopamp.M4:3" 2.242713191716753e-08
"Xopamp.M4:4" 6.255330361264676e-11
"Xopamp.M5:1" 4.377888021724235e-08
"Xopamp.M5:2" 0.000000000000000e+00
"Xopamp.M5:3" -4.377888002765281e-08
"Xopamp.M5:4" -1.895895376318244e-16
"Xopamp.M6:1" -1.585525363689096e-05
"Xopamp.M6:2" 0.000000000000000e+00
"Xopamp.M6:3" 1.585525363006409e-05
"Xopamp.M6:4" 6.826866080662766e-15
"Xopamp.M7:1" 1.582584353210445e-05
"Xopamp.M7:2" 0.000000000000000e+00
"Xopamp.M7:3" -1.542380589845776e-05
"Xopamp.M7:4" -4.020376336466903e-07
"Xopamp.M8:1" 9.999999999999996e-06
"Xopamp.M8:2" 1.694065894508601e-21
"Xopamp.M8:3" -9.999999430969699e-06
"Xopamp.M8:4" -5.690302969380259e-13
"dd" 3.300000000000000e+00
"net7" 5.690195099604625e-01
"inp" 1.650000000000000e+00
"in" 6.000000000000000e-02
"inn" 3.540966236386484e-01
"out" 3.295062860025132e+00
"Xopamp.net1" 2.875888412701144e+00
"Xopamp.net3" 1.895098751917723e-04
"Xopamp.net2" 2.018668926976462e-04
"Xopamp.net8" 2.018668926976462e-04
"vdd:p" -2.589903211234493e-05
"vin:p" 2.940966236386484e-08
"vip:p" 0.000000000000000e+00
"v_in" 7.000000000000001e-02
"Xopamp:1" 1.591123527894925e-05
"Xopamp:2" -2.588191588848468e-05
"Xopamp:3" 0.000000000000000e+00
"Xopamp:4" -3.308722450212111e-24
"Xopamp:5" 9.999999999999997e-06
"Xopamp:6" -2.931931337194990e-08
"Xopamp.M1:1" 2.727621243815028e-08
"Xopamp.M1:2" -3.308722450212111e-24
"Xopamp.M1:3" -2.703418857513200e-08
"Xopamp.M1:4" -2.420238630182772e-10
"Xopamp.M2:1" 2.879623854817105e-08
"Xopamp.M2:2" 0.000000000000000e+00
"Xopamp.M2:3" -2.879623853234691e-08
"Xopamp.M2:4" -1.582413907324505e-17
"Xopamp.M3:1" -2.727622012441152e-08
"Xopamp.M3:2" 3.308722450212111e-24
"Xopamp.M3:3" 2.727564187759931e-08
"Xopamp.M3:4" 5.782468122023707e-13
"Xopamp.M4:1" -2.879624161712974e-08
"Xopamp.M4:2" 0.000000000000000e+00
"Xopamp.M4:3" 2.872166647317471e-08
"Xopamp.M4:4" 7.457514395502210e-11
"Xopamp.M5:1" 5.607238464892697e-08
"Xopamp.M5:2" 0.000000000000000e+00
"Xopamp.M5:3" -5.607238440600655e-08
"Xopamp.M5:4" -2.429204256242005e-16
"Xopamp.M6:1" -1.585516281720771e-05
"Xopamp.M6:2" 0.000000000000000e+00
"Xopamp.M6:3" 1.585516281038081e-05
"Xopamp.M6:4" 6.826901126353143e-15
"Xopamp.M7:1" 1.582584350383576e-05
"Xopamp.M7:2" 0.000000000000000e+00
"Xopamp.M7:3" -1.542380589592746e-05
"Xopamp.M7:4" -4.020376079082981e-07
"Xopamp.M8:1" 9.999999999999996e-06
"Xopamp.M8:2" 1.694065894508601e-21
"Xopamp.M8:3" -9.999999430969699e-06
"Xopamp.M8:4" -5.690302969380259e-13
"dd" 3.300000000000000e+00
"net7" 5.690195099604625e-01
"inp" 1.650000000000000e+00
"in" 7.000000000000001e-02
"inn" 3.631875304273820e-01
"out" 3.295062834701202e+00
"Xopamp.net1" 2.866757428439367e+00
"Xopamp.net3" 2.428184614149229e-04
"Xopamp.net2" 2.586412826268529e-04
"Xopamp.net8" 2.586412826268529e-04
"vdd:p" -2.591123470190058e-05
"vin:p" 2.931875304273820e-08
"vip:p" 0.000000000000000e+00
"v_in" 8.000000000000000e-02
"Xopamp:1" 1.592678504811114e-05
"Xopamp:2" -2.589755637977506e-05
"Xopamp:3" 0.000000000000000e+00
"Xopamp:4" 0.000000000000000e+00
"Xopamp:5" 9.999999999999997e-06
"Xopamp:6" -2.922855100481156e-08
"Xopamp.M1:1" 3.489551188814453e-08
"Xopamp.M1:2" 0.000000000000000e+00
"Xopamp.M1:3" -3.459573542683032e-08
"Xopamp.M1:4" -2.997764613142095e-10
"Xopamp.M2:1" 3.681751475897349e-08
"Xopamp.M2:2" 0.000000000000000e+00
"Xopamp.M2:3" -3.681751473874044e-08
"Xopamp.M2:4" -2.023305573968394e-17
"Xopamp.M3:1" -3.489552127093872e-08
"Xopamp.M3:2" 0.000000000000000e+00
"Xopamp.M3:3" 3.489492950545819e-08
"Xopamp.M3:4" 5.917654805301431e-13
"Xopamp.M4:1" -3.681751663767856e-08
"Xopamp.M4:2" 0.000000000000000e+00
"Xopamp.M4:3" 3.672765425503139e-08
"Xopamp.M4:4" 8.986238264717370e-11
"Xopamp.M5:1" 7.171292057734387e-08
"Xopamp.M5:2" 0.000000000000000e+00
"Xopamp.M5:3" -7.171292026651384e-08
"Xopamp.M5:4" -3.108300286993374e-16
"Xopamp.M6:1" -1.585507201020253e-05
"Xopamp.M6:2" 0.000000000000000e+00
"Xopamp.M6:3" 1.585507200337557e-05
"Xopamp.M6:4" 6.826956465740637e-15
"Xopamp.M7:1" 1.582584345919771e-05
"Xopamp.M7:2" 0.000000000000000e+00
"Xopamp.M7:3" -1.542380589193199e-05
"Xopamp.M7:4" -4.020375672657314e-07
"Xopamp.M8:1" 9.999999999999996e-06
"Xopamp.M8:2" 1.694065894508601e-21
"Xopamp.M8:3" -9.999999430969699e-06
"Xopamp.M8:4" -5.690302969380259e-13
"dd" 3.300000000000000e+00
"net7" 5.690195099604625e-01
"inp" 1.650000000000000e+00
"in" 8.000000000000000e-02
"inn" 3.722784358830086e-01
"out" 3.295062794713094e+00
"Xopamp.net1" 2.857566385527644e+00
"Xopamp.net3" 3.106997339588520e-04
"Xopamp.net2" 3.309311048014576e-04
"Xopamp.net8" 3.309311048014576e-04
"vdd:p" -2.592678431953058e-05
"vin:p" 2.922784358830086e-08
"vip:p" 0.000000000000000e+00
"v_in" 9.000000000000000e-02
"Xopamp:1" 1.594654232300449e-05
"Xopamp:2" -2.591740432178748e-05
"Xopamp:3" 0.000000000000000e+00
"Xopamp:4" 0.000000000000000e+00
"Xopamp:5" 9.999999999999997e-06
"Xopamp:6" -2.913782386644774e-08
"Xopamp.M1:1" 4.456780169086843e-08
"Xopamp.M1:2" 0.000000000000000e+00
"Xopamp.M1:3" -4.419714882904321e-08
"Xopamp.M1:4" -3.706528618252102e-10
"Xopamp.M2:1" 4.699329465102366e-08
"Xopamp.M2:2" 0.000000000000000e+00
"Xopamp.M2:3" -4.699329462519680e-08
"Xopamp.M2:4" -2.582686640509849e-17
"Xopamp.M3:1" -4.456781214841940e-08
"Xopamp.M3:2" 0.000000000000000e+00
"Xopamp.M3:3" 4.456720671183101e-08
"Xopamp.M3:4" 6.054365883950345e-13
"Xopamp.M4:1" -4.699329304850271e-08
"Xopamp.M4:2" 0.000000000000000e+00
"Xopamp.M4:3" 4.688405909132321e-08
"Xopamp.M4:4" 1.092339571795012e-10
"Xopamp.M5:1" 9.156092784637001e-08
"Xopamp.M5:2" 0.000000000000000e+00
"Xopamp.M5:3" -9.156092744926684e-08
"Xopamp.M5:4" -3.971031736450746e-16
"Xopamp.M6:1" -1.585498121780756e-05
"Xopamp.M6:2" 0.000000000000000e+00
"Xopamp.M6:3" 1.585498121098053e-05
"Xopamp.M6:4" 6.827037366685202e-15
"Xopamp.M7:1" 1.582584339394112e-05
"Xopamp.M7:2" 0.000000000000000e+00
"Xopamp.M7:3" -1.542380588609096e-05
"Xopamp.M7:4" -4.020375078501549e-07
"Xopamp.M8:1" 9.999999999999996e-06
"Xopamp.M8:2" 1.694065894508601e-21
"Xopamp.M8:3" -9.999999430969699e-06
"Xopamp.M8:4" -5.690302969380259e-13
"dd" 3.300000000000000e+00
"net7" 5.690195099604625e-01
