HEADER
"PSFversion" "1.00"
"simulator" "spectre"
"version" "23.1.0.063"
"date" "10:03:32 AM, Thur Dec 19, 2024"
"design" ""
"analysis type" "ac"
"analysis name" "outac2"
"analysis description" "AC Analysis `outac2': freq = (100 mHz -> 100 GHz)"
"xVecSorted" "ascending"
"tolerance.relative" 0.00100000
"start" 0.100000
"stop" 1.00000e+11
"operating point producer" "outac2"
TYPE
"sweep" FLOAT DOUBLE PROP(
"key" "sweep"
)
"V" COMPLEX DOUBLE PROP(
"units" "V"
"key" "node"
"tolerance" 1.00000e-06
)
"I" COMPLEX DOUBLE PROP(
"units" "A"
"key" "branch"
"tolerance" 1.00000e-12
)
"MMF" COMPLEX DOUBLE PROP(
"units" "A*turn"
"key" "node"
"tolerance" 1.00000e-12
)
"Wb" COMPLEX DOUBLE PROP(
"units" "Wb"
"key" "node"
"tolerance" 1.00000e-09
)
"Temp" COMPLEX DOUBLE PROP(
"units" "C"
"key" "node"
"tolerance" 0.000100000
)
"Pwr" COMPLEX DOUBLE PROP(
"units" "W"
"key" "node"
"tolerance" 1.00000e-09
)
"U" COMPLEX DOUBLE PROP(
"units" ""
"key" "node"
"tolerance" 1.00000e-06
)
"V/Sec" COMPLEX DOUBLE PROP(
"units" "V/s"
"key" "node"
"tolerance" 0.000100000
)
"I/Sec" COMPLEX DOUBLE PROP(
"units" "A/s"
"key" "node"
"tolerance" 1.00000e-06
)
"1/Sec" COMPLEX DOUBLE PROP(
"units" "1/s"
"key" "node"
"tolerance" 0.000100000
)
"HOD" COMPLEX DOUBLE PROP(
"units" ""
"key" "node"
"tolerance" 0.0100000
)
"Q" COMPLEX DOUBLE PROP(
"units" "Coul"
"key" "node"
"tolerance" 1.00000e-15
)
SWEEP
"freq" "sweep" PROP(
"sweep_direction" 0
"units" "Hz"
"plot" 0
"grid" 3
)
TRACE
"Xopamp:1" "I"
"Xopamp:2" "I"
"Xopamp:3" "I"
"Xopamp:4" "I"
"Xopamp:5" "I"
"Xopamp:6" "I"
"Xopamp.M1:1" "I"
"Xopamp.M1:2" "I"
"Xopamp.M1:3" "I"
"Xopamp.M1:4" "I"
"Xopamp.M2:1" "I"
"Xopamp.M2:2" "I"
"Xopamp.M2:3" "I"
"Xopamp.M2:4" "I"
"Xopamp.M3:1" "I"
"Xopamp.M3:2" "I"
"Xopamp.M3:3" "I"
"Xopamp.M3:4" "I"
"Xopamp.M4:1" "I"
"Xopamp.M4:2" "I"
"Xopamp.M4:3" "I"
"Xopamp.M4:4" "I"
"Xopamp.M5:1" "I"
"Xopamp.M5:2" "I"
"Xopamp.M5:3" "I"
"Xopamp.M5:4" "I"
"Xopamp.M6:1" "I"
"Xopamp.M6:2" "I"
"Xopamp.M6:3" "I"
"Xopamp.M6:4" "I"
"Xopamp.M7:1" "I"
"Xopamp.M7:2" "I"
"Xopamp.M7:3" "I"
"Xopamp.M7:4" "I"
"Xopamp.M8:1" "I"
"Xopamp.M8:2" "I"
"Xopamp.M8:3" "I"
"Xopamp.M8:4" "I"
"dd" "V"
"net7" "V"
"inn" "V"
"out" "V"
"inp" "V"
"cm" "V"
"Xopamp.net1" "V"
"Xopamp.net3" "V"
"Xopamp.net2" "V"
"Xopamp.net8" "V"
"vcm:p" "I"
"vdd:p" "I"
"vin:p" "I"
"vip:p" "I"
VALUE
"freq" 1.000000000000000e-01
"Xopamp:1" (1.237716483591397e-07 3.022092187181027e-14)
"Xopamp:2" (-1.237716484749492e-07 -3.153438821918560e-14)
"Xopamp:3" (-2.892035496087365e-24 1.285133661441295e-15)
"Xopamp:4" (-3.026145522079690e-24 1.267023112469996e-15)
"Xopamp:5" (4.468347901063220e-36 8.788332585252255e-28)
"Xopamp:6" (-1.745064358832930e-21 -1.238690426520143e-15)
"Xopamp.M1:1" (6.190174097863154e-08 8.813933942781761e-15)
"Xopamp.M1:2" (-3.026145522079690e-24 1.267023112469996e-15)
"Xopamp.M1:3" (-6.206684287357600e-08 -1.087898504163605e-14)
"Xopamp.M1:4" (1.651018882987442e-10 7.980279863865905e-16)
"Xopamp.M2:1" (6.187305938866331e-08 8.512937546919084e-15)
"Xopamp.M2:2" (-2.892035496087365e-24 1.285133661441295e-15)
"Xopamp.M2:3" (-6.197948144298637e-08 -1.060193218514553e-14)
"Xopamp.M2:4" (1.064220567118115e-10 8.038609767835886e-16)
"Xopamp.M3:1" (-6.190174097862476e-08 -8.537874896856340e-15)
"Xopamp.M3:2" (1.853849673583687e-23 -1.344620141712113e-16)
"Xopamp.M3:3" (6.190173958444428e-08 8.645643898097887e-15)
"Xopamp.M3:4" (1.394192179706901e-15 2.669301292723123e-17)
"Xopamp.M4:1" (-6.187305938867559e-08 -8.528735148576988e-15)
"Xopamp.M4:2" (1.892982351910326e-23 -1.415970317586161e-16)
"Xopamp.M4:3" (6.187305938894996e-08 8.647176901077877e-15)
"Xopamp.M4:4" (-2.743838496185821e-19 2.315527925711895e-17)
"Xopamp.M5:1" (1.237748004645489e-07 1.987902826360309e-14)
"Xopamp.M5:2" (-1.070127406327833e-23 -7.660910280587486e-15)
"Xopamp.M5:3" (-1.237736009272749e-07 -7.697550386165630e-15)
"Xopamp.M5:4" (-1.199555847655057e-12 -4.520567596842724e-15)
"Xopamp.M6:1" (3.152008171749274e-12 -1.287844388421263e-14)
"Xopamp.M6:2" (2.041091521540107e-23 1.911037625121645e-19)
"Xopamp.M6:3" (-3.152173272594348e-12 1.287812172942172e-14)
"Xopamp.M6:4" (1.651002475624590e-16 1.310510284368749e-19)
"Xopamp.M7:1" (-3.152008173443340e-12 1.165535995558812e-14)
"Xopamp.M7:2" (-1.440499716012316e-23 2.014723875304424e-19)
"Xopamp.M7:3" (3.126536508885359e-12 -1.165562750286384e-14)
"Xopamp.M7:4" (2.547166444421508e-14 6.607488800521551e-20)
"Xopamp.M8:1" (3.443542538701578e-23 7.660708808200835e-15)
"Xopamp.M8:2" (-9.329154163609823e-24 4.221010901825230e-32)
"Xopamp.M8:3" (-2.717121762138946e-23 -7.660708762210039e-15)
"Xopamp.M8:4" (2.064946397981402e-24 -4.599136723775215e-23)
"dd" (0.000000000000000e+00 0.000000000000000e+00)
"net7" (2.080706038207411e-19 4.599173758998355e-11)
"inn" (9.999774535649005e-01 3.586236072009176e-12)
"out" (-2.254643509946863e-05 3.586236072009176e-12)
"inp" (1.000000000000000e+00 0.000000000000000e+00)
"cm" (0.000000000000000e+00 0.000000000000000e+00)
"Xopamp.net1" (-8.287890822339252e-04 -1.142671513552843e-10)
"Xopamp.net3" (9.981746006348667e-01 -1.331636047521987e-10)
"Xopamp.net2" (3.403112273976601e-08 -6.875171743087557e-11)
"Xopamp.net8" (3.403112273502825e-08 -7.020156108537938e-11)
"vcm:p" (2.892035496087365e-24 -1.285133661441295e-15)
"vdd:p" (-1.237716483591397e-07 -3.022092187181027e-14)
"vin:p" (1.044775965681357e-22 -1.267023112469575e-15)
"vip:p" (2.892035496087365e-24 -1.285133661441295e-15)
"freq" 1.258925411794167e-01
"Xopamp:1" (1.237716483590748e-07 3.804588651227194e-14)
"Xopamp:2" (-1.237716484749493e-07 -3.969944267451537e-14)
"Xopamp:3" (-4.583567370105284e-24 1.617887423940525e-15)
"Xopamp:4" (-4.796117437340727e-24 1.595087593619002e-15)
"Xopamp:5" (1.295688648193866e-35 4.089539152905560e-27)
"Xopamp:6" (-8.082711893359977e-23 -1.559418855292979e-15)
"Xopamp.M1:1" (6.190174097860443e-08 1.109608541844683e-14)
"Xopamp.M1:2" (-4.796117437340727e-24 1.595087593619002e-15)
"Xopamp.M1:3" (-6.206684287357600e-08 -1.369583072344547e-14)
"Xopamp.M1:4" (1.651018882987446e-10 1.004657711385010e-15)
"Xopamp.M2:1" (6.187305938865107e-08 1.071715340683519e-14)
"Xopamp.M2:2" (-4.583567370105284e-24 1.617887423940525e-15)
"Xopamp.M2:3" (-6.197948144298637e-08 -1.334704184199912e-14)
"Xopamp.M2:4" (1.064220567118119e-10 1.012001011222542e-15)
"Xopamp.M3:1" (-6.190174097859766e-08 -1.074854767036788e-14)
"Xopamp.M3:2" (2.938153727509528e-23 -1.692776465610766e-16)
"Xopamp.M3:3" (6.190173958441182e-08 1.088422080464031e-14)
"Xopamp.M3:4" (1.394192177553626e-15 3.360451229142399e-17)
"Xopamp.M4:1" (-6.187305938864316e-08 -1.073704140900952e-14)
"Xopamp.M4:2" (3.000174842992212e-23 -1.782601015154540e-16)
"Xopamp.M4:3" (6.187305938891751e-08 1.088615074104818e-14)
"Xopamp.M4:4" (-2.743858868554403e-19 2.915076947396213e-17)
"Xopamp.M5:1" (1.237748004645489e-07 2.502621384282572e-14)
"Xopamp.M5:2" (-1.696037641355070e-23 -9.644514629706773e-15)
"Xopamp.M5:3" (-1.237736009272749e-07 -9.690641789709917e-15)
"Xopamp.M5:4" (-1.199555847654340e-12 -5.691057423398597e-15)
"Xopamp.M6:1" (3.152008171749274e-12 -1.621300027020079e-14)
"Xopamp.M6:2" (3.234912057679082e-23 2.405853829182384e-19)
"Xopamp.M6:3" (-3.152173272548705e-12 1.621259470134811e-14)
"Xopamp.M6:4" (1.651002458055691e-16 1.649834699425926e-19)
"Xopamp.M7:1" (-3.152008171749274e-12 1.467322883169792e-14)
"Xopamp.M7:2" (-2.283038193650112e-23 2.536387084394623e-19)
"Xopamp.M7:3" (3.126536508891898e-12 -1.467356565376228e-14)
"Xopamp.M7:4" (2.547166444608773e-14 8.318335559292481e-20)
"Xopamp.M8:1" (5.457647127539024e-23 9.644260991002423e-15)
"Xopamp.M8:2" (-1.478571292532546e-23 8.422023983484750e-32)
"Xopamp.M8:3" (-4.306347783902001e-23 -9.644260933100462e-15)
"Xopamp.M8:4" (3.272719488957822e-24 -5.789970094564183e-23)
"dd" (0.000000000000000e+00 0.000000000000000e+00)
"net7" (3.297696835467684e-19 5.790016718459934e-11)
"inn" (9.999774535649003e-01 4.514803723723629e-12)
"out" (-2.254643509969068e-05 4.514803723723629e-12)
"inp" (1.000000000000000e+00 0.000000000000000e+00)
"cm" (0.000000000000000e+00 0.000000000000000e+00)
"Xopamp.net1" (-8.287890822334908e-04 -1.438538205745214e-10)
"Xopamp.net3" (9.981746006348670e-01 -1.676430459486769e-10)
"Xopamp.net2" (3.403112273963937e-08 -8.655328417822370e-11)
"Xopamp.net8" (3.403112273213053e-08 -8.837852919802478e-11)
"vcm:p" (4.583567370105284e-24 -1.617887423940527e-15)
"vdd:p" (-1.237716483590748e-07 -3.804588651227193e-14)
"vin:p" (5.262775088655249e-23 -1.595087593619758e-15)
"vip:p" (4.583567370105284e-24 -1.617887423940527e-15)
"freq" 1.584893192461114e-01
"Xopamp:1" (1.237716483591087e-07 4.789693334453152e-14)
"Xopamp:2" (-1.237716484749493e-07 -4.997863721701317e-14)
"Xopamp:3" (-7.264464722065707e-24 2.036799591420938e-15)
"Xopamp:4" (-7.601333876684904e-24 2.008096305644587e-15)
"Xopamp:5" (2.899356816303172e-35 3.425336743366193e-28)
"Xopamp:6" (-1.822168245072738e-21 -1.963192024559242e-15)
"Xopamp.M1:1" (6.190174097861798e-08 1.396914390471660e-14)
"Xopamp.M1:2" (-7.601333876684904e-24 2.008096305644587e-15)
"Xopamp.M1:3" (-6.206684287357600e-08 -1.724202933337667e-14)
"Xopamp.M1:4" (1.651018882987449e-10 1.264789123017561e-15)
"Xopamp.M2:1" (6.187305938867554e-08 1.349209676595703e-14)
"Xopamp.M2:2" (-7.264464722065707e-24 2.036799591420938e-15)
"Xopamp.M2:3" (-6.197948144298637e-08 -1.680293014716909e-14)
"Xopamp.M2:4" (1.064220567118124e-10 1.274033789789452e-15)
"Xopamp.M3:1" (-6.190174097861121e-08 -1.353161980210767e-14)
"Xopamp.M3:2" (4.656659841133325e-23 -2.131079309045094e-16)
"Xopamp.M3:3" (6.190173958442881e-08 1.370242215853826e-14)
"Xopamp.M3:4" (1.394192174142458e-15 4.230557447463472e-17)
"Xopamp.M4:1" (-6.187305938866014e-08 -1.351713427728504e-14)
"Xopamp.M4:2" (4.754956684850636e-23 -2.244161717068746e-16)
"Xopamp.M4:3" (6.187305938893449e-08 1.370485180452527e-14)
"Xopamp.M4:4" (-2.743891156593153e-19 3.669864446413470e-17)
"Xopamp.M5:1" (1.237748004090378e-07 3.150613656771527e-14)
"Xopamp.M5:2" (-2.688038511941415e-23 -1.214172455175847e-14)
"Xopamp.M5:3" (-1.237736009272749e-07 -1.219979520566032e-14)
"Xopamp.M5:4" (-1.199555847653205e-12 -7.164616810296328e-15)
"Xopamp.M6:1" (3.152008171749274e-12 -2.041095804158138e-14)
"Xopamp.M6:2" (5.126990098425920e-23 3.028790522635390e-19)
"Xopamp.M6:3" (-3.152173272598452e-12 2.041044746064639e-14)
"Xopamp.M6:4" (1.651002430193222e-16 2.077018828377248e-19)
"Xopamp.M7:1" (-3.152008173443340e-12 1.847250064929543e-14)
"Xopamp.M7:2" (-3.618371691244752e-23 3.193122154707591e-19)
"Xopamp.M7:3" (3.126536508868855e-12 -1.847292468315142e-14)
"Xopamp.M7:4" (2.547166444878352e-14 1.047216401952686e-19)
"Xopamp.M8:1" (8.649787779292328e-23 1.214140523954334e-14)
"Xopamp.M8:2" (-2.343377576103261e-23 1.680414707001109e-31)
"Xopamp.M8:3" (-6.825101287076221e-23 -1.214140516665389e-14)
"Xopamp.M8:4" (5.186910838884063e-24 -7.289140486947448e-23)
"dd" (0.000000000000000e+00 0.000000000000000e+00)
"net7" (5.226497265333252e-19 7.289199181582281e-11)
"inn" (9.999774535649002e-01 5.683801137076908e-12)
"out" (-2.254643509980170e-05 5.683801137076908e-12)
"inp" (1.000000000000000e+00 0.000000000000000e+00)
"cm" (0.000000000000000e+00 0.000000000000000e+00)
"Xopamp.net1" (-8.287890822337183e-04 -1.811012303049136e-10)
"Xopamp.net3" (9.981746006348666e-01 -2.110500906553353e-10)
"Xopamp.net2" (3.403112273990661e-08 -1.089641289262067e-10)
"Xopamp.net8" (3.403112272800591e-08 -1.112619762643959e-10)
"vcm:p" (7.264464722065707e-24 -2.036799591420941e-15)
"vdd:p" (-1.237716483591087e-07 -4.789693334453152e-14)
"vin:p" (5.810701465114936e-23 -2.008096305645364e-15)
"vip:p" (7.264464722065707e-24 -2.036799591420941e-15)
"freq" 1.995262314968880e-01
"Xopamp:1" (1.237716483591027e-07 6.029866653444159e-14)
"Xopamp:2" (-1.237716484749495e-07 -6.291937643933963e-14)
"Xopamp:3" (-1.151340068487560e-23 2.564178764371791e-15)
"Xopamp:4" (-1.204730231478168e-23 2.528043468505945e-15)
"Xopamp:5" (5.959756358668998e-36 6.115585024087123e-27)
"Xopamp:6" (-1.897094437855927e-21 -2.471512327948481e-15)
"Xopamp.M1:1" (6.190174097861121e-08 1.758611024266036e-14)
"Xopamp.M1:2" (-1.204730231478168e-23 2.528043468505945e-15)
"Xopamp.M1:3" (-6.206684287357600e-08 -2.170642887868450e-14)
"Xopamp.M1:4" (1.651018882987458e-10 1.592275167527663e-15)
"Xopamp.M2:1" (6.187305938865108e-08 1.698554347704934e-14)
"Xopamp.M2:2" (-1.151340068487560e-23 2.564178764371791e-15)
"Xopamp.M2:3" (-6.197948144298637e-08 -2.115363575487291e-14)
"Xopamp.M2:4" (1.064220567118133e-10 1.603913513450372e-15)
"Xopamp.M3:1" (-6.190174097861121e-08 -1.703530003160877e-14)
"Xopamp.M3:2" (7.380308481819201e-23 -2.682869896705495e-16)
"Xopamp.M3:3" (6.190173958442580e-08 1.725032745851516e-14)
"Xopamp.M3:4" (1.394192168735447e-15 5.325956276666576e-17)
"Xopamp.M4:1" (-6.187305938865718e-08 -1.701706383630400e-14)
"Xopamp.M4:2" (7.536098480267182e-23 -2.825232213793341e-16)
"Xopamp.M4:3" (6.187305938893149e-08 1.725338620158987e-14)
"Xopamp.M4:4" (-2.743942329675241e-19 4.620085609429629e-17)
"Xopamp.M5:1" (1.237748004090378e-07 3.966387595256438e-14)
"Xopamp.M5:2" (-4.260253938649243e-23 -1.528552558121388e-14)
"Xopamp.M5:3" (-1.237736009272750e-07 -1.535863220309043e-14)
"Xopamp.M5:4" (-1.199555847651406e-12 -9.019718168249722e-15)
"Xopamp.M6:1" (3.152008171749274e-12 -2.569587375761089e-14)
"Xopamp.M6:2" (8.125731704810698e-23 3.813021355910651e-19)
"Xopamp.M6:3" (-3.152173272629219e-12 2.569523097429723e-14)
"Xopamp.M6:4" (1.651002386005039e-16 2.614811783793138e-19)
"Xopamp.M7:1" (-3.152008173443340e-12 2.325550048678233e-14)
"Xopamp.M7:2" (-5.734732661247816e-23 4.019902623486658e-19)
"Xopamp.M7:3" (3.126536508777144e-12 -2.325603431377905e-14)
"Xopamp.M7:4" (2.547166445260641e-14 1.318367340038742e-19)
"Xopamp.M8:1" (1.370898976762974e-22 1.528512359095765e-14)
"Xopamp.M8:2" (-3.714003167732085e-23 3.352868138398783e-31)
"Xopamp.M8:3" (-1.081705656774468e-22 -1.528512349918959e-14)
"Xopamp.M8:4" (8.220699678450120e-24 -9.176484191893998e-23)
"dd" (0.000000000000000e+00 0.000000000000000e+00)
"net7" (8.283439936243295e-19 9.176558081323183e-11)
"inn" (9.999774535649004e-01 7.155481687050332e-12)
"out" (-2.254643509957965e-05 7.155481687050332e-12)
"inp" (1.000000000000000e+00 0.000000000000000e+00)
"cm" (0.000000000000000e+00 0.000000000000000e+00)
"Xopamp.net1" (-8.287890822336784e-04 -2.279929409380420e-10)
"Xopamp.net3" (9.981746006348668e-01 -2.656963222874584e-10)
"Xopamp.net2" (3.403112273976982e-08 -1.371777108792162e-10)
"Xopamp.net8" (3.403112272090847e-08 -1.400705292856568e-10)
"vcm:p" (1.151340068487560e-23 -2.564178764371790e-15)
"vdd:p" (-1.237716483591026e-07 -6.029866653444159e-14)
"vin:p" (-3.817632397388290e-23 -2.528043468505771e-15)
"vip:p" (1.151340068487560e-23 -2.564178764371790e-15)
"freq" 2.511886431509581e-01
"Xopamp:1" (1.237716483591271e-07 7.591152359751185e-14)
"Xopamp:2" (-1.237716484749497e-07 -7.921080189372786e-14)
"Xopamp:3" (-1.824751036753745e-23 3.228109806850616e-15)
"Xopamp:4" (-1.909368742621976e-23 3.182618164622414e-15)
"Xopamp:5" (7.055317093635370e-35 3.443257975528856e-27)
"Xopamp:6" (-2.015844450735047e-21 -3.111449675216548e-15)
"Xopamp.M1:1" (6.190174097862476e-08 2.213960107910024e-14)
"Xopamp.M1:2" (-1.909368742621976e-23 3.182618164622414e-15)
"Xopamp.M1:3" (-6.206684287357600e-08 -2.732677491468186e-14)
"Xopamp.M1:4" (1.651018882987471e-10 2.004555670969391e-15)
"Xopamp.M2:1" (6.187305938865107e-08 2.138353231639482e-14)
"Xopamp.M2:2" (-1.824751036753745e-23 3.228109806850616e-15)
"Xopamp.M2:3" (-6.197948144298637e-08 -2.663084960364876e-14)
"Xopamp.M2:4" (1.064220567118146e-10 2.019207480402733e-15)
"Xopamp.M3:1" (-6.190174097862476e-08 -2.144617210732586e-14)
"Xopamp.M3:2" (1.169700067109846e-22 -3.377533089500812e-16)
"Xopamp.M3:3" (6.190173958443806e-08 2.171687559929583e-14)
"Xopamp.M3:4" (1.394192160166294e-15 6.704981698801530e-17)
"Xopamp.M4:1" (-6.187305938866946e-08 -2.142321409765004e-14)
"Xopamp.M4:2" (1.194391117909221e-22 -3.556756628164635e-16)
"Xopamp.M4:3" (6.187305938894373e-08 2.172072632868074e-14)
"Xopamp.M4:4" (-2.744023433549060e-19 5.816343178376658e-17)
"Xopamp.M5:1" (1.237748004090378e-07 4.993386136693642e-14)
"Xopamp.M5:2" (-6.752047465520869e-23 -1.924333658681996e-14)
"Xopamp.M5:3" (-1.237736009272750e-07 -1.933537237087078e-14)
"Xopamp.M5:4" (-1.199555847648555e-12 -1.135515240923111e-14)
"Xopamp.M6:1" (3.152008171749274e-12 -3.234918845171117e-14)
"Xopamp.M6:2" (1.287841686271990e-22 4.800309480647397e-19)
"Xopamp.M6:3" (-3.152173272684638e-12 3.234837923546333e-14)
"Xopamp.M6:4" (1.651002315989129e-16 3.291853001659617e-19)
"Xopamp.M7:1" (-3.152008173443340e-12 2.927694052680199e-14)
"Xopamp.M7:2" (-9.088938755396059e-23 5.060757565624294e-19)
"Xopamp.M7:3" (3.126536508665196e-12 -2.927761257517357e-14)
"Xopamp.M7:4" (2.547166445893744e-14 1.659726146436614e-19)
"Xopamp.M8:1" (2.172728455824158e-22 1.924283051106684e-14)
"Xopamp.M8:2" (-5.886298337317593e-23 6.689851443606962e-31)
"Xopamp.M8:3" (-1.714387931668535e-22 -1.924283039554195e-14)
"Xopamp.M8:4" (1.302893095764286e-23 -1.155250914556613e-22)
"dd" (0.000000000000000e+00 0.000000000000000e+00)
"net7" (1.312836756511253e-18 1.155260216138288e-10)
"inn" (9.999774535649005e-01 9.008217729459861e-12)
"out" (-2.254643509946863e-05 9.008217729459861e-12)
"inp" (1.000000000000000e+00 0.000000000000000e+00)
"cm" (0.000000000000000e+00 0.000000000000000e+00)
"Xopamp.net1" (-8.287890822338430e-04 -2.870261070565925e-10)
"Xopamp.net3" (9.981746006348668e-01 -3.344918519479530e-10)
"Xopamp.net2" (3.403112273977236e-08 -1.726965061575982e-10)
"Xopamp.net8" (3.403112270987913e-08 -1.763383487611526e-10)
"vcm:p" (1.824751036753745e-23 -3.228109806850617e-15)
"vdd:p" (-1.237716483591271e-07 -7.591152359751185e-14)
"vin:p" (-1.496833401615854e-22 -3.182618164620927e-15)
"vip:p" (1.824751036753745e-23 -3.228109806850617e-15)
"freq" 3.162277660168380e-01
"Xopamp:1" (1.237716483591264e-07 9.556694610491984e-14)
"Xopamp:2" (-1.237716484749500e-07 -9.972049139260754e-14)
"Xopamp:3" (-2.892035496087365e-23 4.063949467906206e-15)
"Xopamp:4" (-3.026145522079795e-23 4.006678883480858e-15)
"Xopamp:5" (2.097081921866961e-35 1.815714882856144e-27)
"Xopamp:6" (-2.204050537751965e-21 -3.917083063649166e-15)
"Xopamp.M1:1" (6.190174097862476e-08 2.787210640546206e-14)
"Xopamp.M1:2" (-3.026145522079795e-23 4.006678883480858e-15)
"Xopamp.M1:3" (-6.206684287357600e-08 -3.440237136247779e-14)
"Xopamp.M1:4" (1.651018882987491e-10 2.523586073539479e-15)
"Xopamp.M2:1" (6.187305938865107e-08 2.692027222702948e-14)
"Xopamp.M2:2" (-2.892035496087365e-23 4.063949467906206e-15)
"Xopamp.M2:3" (-6.197948144298637e-08 -3.352625330369839e-14)
"Xopamp.M2:4" (1.064220567118167e-10 2.542031608763883e-15)
"Xopamp.M3:1" (-6.190174097862476e-08 -2.699913105163164e-14)
"Xopamp.M3:2" (1.853849673583687e-22 -4.252062235548221e-16)
"Xopamp.M3:3" (6.190173958443779e-08 2.733992655672598e-14)
"Xopamp.M3:4" (1.394192146584659e-15 8.441071846236042e-17)
"Xopamp.M4:1" (-6.187305938866924e-08 -2.697022862984015e-14)
"Xopamp.M4:2" (1.892982351910326e-22 -4.477691302763782e-16)
"Xopamp.M4:3" (6.187305938894346e-08 2.734477433780258e-14)
"Xopamp.M4:4" (-2.744151974529528e-19 7.322342230974003e-17)
"Xopamp.M5:1" (1.237748004090378e-07 6.286300698383675e-14)
"Xopamp.M5:2" (-1.070127406327834e-22 -2.422592543685608e-14)
"Xopamp.M5:3" (-1.237736009272751e-07 -2.434179162419206e-14)
"Xopamp.M5:4" (-1.199555847644036e-12 -1.429528992277681e-14)
"Xopamp.M6:1" (3.152008171749274e-12 -4.072521539277746e-14)
"Xopamp.M6:2" (2.041091521540128e-22 6.043231589693676e-19)
"Xopamp.M6:3" (-3.152173272771080e-12 4.072419664987960e-14)
"Xopamp.M6:4" (1.651002205042405e-16 4.144197395700538e-19)
"Xopamp.M7:1" (-3.152008173443340e-12 3.685748440877725e-14)
"Xopamp.M7:2" (-1.440499716012312e-22 6.371116302333008e-19)
"Xopamp.M7:3" (3.126536508527567e-12 -3.685833046755047e-14)
"Xopamp.M7:4" (2.547166446929567e-14 2.089471422387722e-19)
"Xopamp.M8:1" (3.443542538701338e-22 2.422528832522767e-14)
